,,2022
6,6A,0D
1,v1,a,,V,29.8546,0,0,-32767,32767,1,1,p
2,v2,b,,V,29.8546,0,0,-32767,32767,1,1,p
3,v3,c,,V,29.8546,0,0,-32767,32767,1,1,p
4,iq,a,,A,0.2364539,0,0,-32767,32767,1,1,p
5,iq,b,,A,0.2364539,0,0,-32767,32767,1,1,p
6,iq,c,,A,0.2364539,0,0,-32767,32767,1,1,p
50
1
7142,37294
23/06/2022,13:29:59.998918
23/06/2022,13:35:00.017571
ASCII
1
0,0.0,3229,-7602,4361,188,-4,-162
1,137.0,3515,-7640,4103,178,6,-162
2,274.0,3793,-7664,3837,172,16,-162
3,410.0,4065,-7671,3563,167,23,-163
4,547.0,4330,-7663,3281,159,26,-164
5,684.0,4587,-7639,2992,150,29,-165
6,821.0,4834,-7600,2699,145,35,-167
7,957.0,5073,-7549,2403,141,44,-167
8,1094.0,5302,-7484,2104,136,53,-166
9,1231.0,5523,-7405,1802,127,60,-163
10,1367.0,5735,-7312,1494,117,64,-159
11,1504.0,5941,-7202,1178,108,68,-154
12,1641.0,6139,-7075,854,103,71,-149
13,1778.0,6330,-6930,520,98,74,-144
14,1914.0,6511,-6768,180,92,76,-140
15,2051.0,6681,-6590,-164,88,79,-135
16,2188.0,6838,-6399,-507,83,81,-131
17,2325.0,6979,-6197,-847,72,83,-126
18,2461.0,7104,-5985,-1181,57,86,-120
19,2598.0,7214,-5767,-1507,48,88,-114
20,2735.0,7310,-5541,-1827,46,90,-109
21,2872.0,7393,-5308,-2142,45,89,-104
22,3008.0,7464,-5068,-2453,41,86,-100
23,3145.0,7525,-4820,-2761,34,85,-97
24,3282.0,7575,-4565,-3066,26,88,-95
25,3419.0,7612,-4303,-3365,20,93,-92
26,3555.0,7635,-4036,-3657,16,98,-88
27,3692.0,7643,-3764,-3941,13,97,-82
28,3829.0,7636,-3487,-4214,12,93,-74
29,3966.0,7614,-3204,-4478,14,90,-66
30,4102.0,7577,-2917,-4733,11,88,-57
31,4239.0,7527,-2622,-4981,-1,85,-50
32,4376.0,7465,-2320,-5222,-11,80,-44
33,4513.0,7390,-2010,-5458,-11,75,-40
34,4649.0,7302,-1691,-5686,-10,74,-37
35,4786.0,7200,-1365,-5906,-12,74,-35
36,4923.0,7083,-1033,-6116,-15,75,-34
37,5060.0,6949,-695,-6315,-21,75,-31
38,5196.0,6799,-354,-6501,-27,75,-28
39,5333.0,6632,-11,-6675,-30,77,-25
40,5470.0,6451,334,-6838,-31,78,-21
41,5607.0,6257,680,-6989,-30,76,-18
42,5743.0,6053,1024,-7130,-23,72,-16
43,5880.0,5840,1365,-7257,-14,68,-14
44,6017.0,5619,1702,-7372,-18,65,-12
45,6153.0,5390,2033,-7470,-25,60,-9
46,6290.0,5152,2356,-7552,-20,56,-6
47,6427.0,4907,2672,-7616,-11,55,-2
48,6564.0,4653,2979,-7665,-12,55,2
49,6700.0,4390,3278,-7699,-17,52,5
50,6837.0,4121,3569,-7720,-18,42,8
51,6974.0,3844,3852,-7728,-20,27,9
52,7111.0,3560,4127,-7724,-15,17,9
53,7247.0,3270,4394,-7705,-1,14,11
54,7384.0,2973,4650,-7668,5,11,17
55,7521.0,2668,4896,-7611,1,7,27
56,7658.0,2356,5132,-7531,-1,13,44
57,7794.0,2036,5357,-7428,-38,52,67
58,7931.000000000001,1710,5571,-7304,-163,125,95
59,8068.000000000001,1562,5869,-7457,76,-85,26
60,8205.0,1216,6082,-7309,-6,-8,24
61,8341.0,866,6288,-7149,-4,18,21
62,8478.0,514,6485,-6981,17,11,16
63,8615.0,161,6672,-6805,26,-2,9
64,8752.0,-193,6847,-6622,40,-8,1
65,8888.0,-546,7006,-6431,56,-12,-7
66,9025.0,-896,7150,-6231,59,-17,-15
67,9162.0,-1242,7278,-6022,58,-17,-22
68,9299.0,-1583,7391,-5803,64,-11,-26
69,9435.0,-1917,7490,-5574,69,-3,-28
70,9572.0,-2243,7576,-5337,73,0,-29
71,9709.0,-2560,7651,-5093,80,-2,-30
72,9846.0,-2869,7714,-4841,82,-4,-30
73,9982.0,-3171,7765,-4583,75,-6,-30
74,10119.0,-3466,7803,-4319,73,-7,-32
75,10256.0,-3755,7826,-4049,77,-8,-34
76,10393.0,-4038,7834,-3773,78,-4,-36
77,10529.0,-4314,7827,-3492,76,3,-39
78,10666.0,-4584,7806,-3204,78,8,-42
79,10803.0,-4844,7771,-2911,77,7,-45
80,10939.0,-5095,7724,-2613,74,6,-47
81,11076.0,-5336,7665,-2309,76,7,-50
82,11213.0,-5567,7593,-1999,81,11,-53
83,11350.0,-5789,7508,-1682,83,14,-56
84,11486.0,-6002,7406,-1358,83,18,-59
85,11623.0,-6207,7287,-1026,83,25,-63
86,11760.0,-6403,7150,-688,81,34,-67
87,11897.0,-6589,6993,-345,82,44,-71
88,12033.0,-6764,6818,1,88,49,-76
89,12170.0,-6924,6628,347,92,53,-82
90,12307.0,-7069,6425,691,89,57,-88
91,12444.0,-7199,6210,1032,85,64,-95
92,12580.0,-7313,5986,1368,77,71,-103
93,12717.0,-7413,5754,1700,67,79,-110
94,12854.0,-7501,5514,2027,61,87,-116
95,12991.0,-7578,5266,2350,61,93,-121
96,13127.0,-7644,5011,2669,63,95,-125
97,13264.0,-7699,4749,2982,61,96,-127
98,13401.0,-7743,4482,3289,55,100,-127
99,13538.0,-7773,4210,3587,47,105,-126
100,13674.0,-7788,3934,3877,37,110,-124
101,13811.0,-7788,3656,4158,32,113,-121
102,13948.0,-7772,3374,4429,29,117,-119
103,14085.0,-7742,3087,4693,25,124,-116
104,14221.0,-7698,2795,4949,22,133,-115
105,14358.0,-7641,2495,5199,18,141,-114
106,14495.0,-7571,2188,5442,12,146,-114
107,14632.0,-7488,1871,5678,4,150,-115
108,14768.0,-7391,1545,5906,2,154,-116
109,14905.0,-7278,1211,6123,3,159,-117
110,15042.0,-7148,870,6329,1,164,-118
111,15179.0,-7000,523,6524,-3,169,-118
112,15315.0,-6835,172,6706,-9,172,-117
113,15452.0,-6654,-183,6876,-15,173,-114
114,15589.0,-6459,-540,7034,-21,173,-110
115,15725.0,-6252,-897,7181,-25,173,-105
116,15862.000000000002,-6035,-1253,7315,-31,175,-99
117,15999.0,-5809,-1604,7436,-37,179,-94
118,16136.000000000002,-5575,-1949,7542,-42,180,-90
119,16271.999999999998,-5333,-2287,7632,-48,181,-87
120,16409.0,-5083,-2615,7705,-58,182,-85
121,16546.0,-4825,-2935,7762,-66,186,-84
122,16683.0,-4561,-3245,7804,-72,190,-83
123,16819.0,-4291,-3547,7831,-80,193,-80
124,16956.0,-4015,-3840,7845,-92,195,-76
125,17093.0,-3736,-4125,7848,-104,197,-71
126,17230.0,-3452,-4402,7839,-113,200,-64
127,17366.0,-3163,-4669,7817,-122,203,-56
128,17503.0,-2868,-4928,7781,-129,205,-48
129,17640.0,-2568,-5178,7731,-137,208,-40
130,17777.0,-2260,-5418,7665,-147,209,-33
131,17913.0,-1944,-5651,7583,-156,207,-26
132,18050.0,-1621,-5876,7484,-164,203,-19
133,18187.0,-1292,-6094,7369,-174,199,-11
134,18324.0,-957,-6304,7238,-182,196,-2
135,18460.0,-616,-6507,7093,-184,194,9
136,18597.0,-271,-6699,6934,-187,192,21
137,18734.0,78,-6879,6760,-194,189,34
138,18871.0,430,-7045,6573,-203,187,47
139,19007.0,782,-7195,6373,-210,183,59
140,19144.0,1133,-7329,6160,-216,178,70
141,19281.0,1482,-7447,5937,-222,172,80
142,19418.0,1825,-7551,5705,-228,167,88
143,19554.0,2160,-7643,5465,-235,162,97
144,19691.0,2488,-7722,5219,-240,156,106
145,19828.0,2806,-7790,4967,-243,148,117
146,19964.0,3116,-7846,4708,-247,141,129
147,20101.0,3418,-7888,4443,-252,134,142
148,20238.0,3713,-7915,4171,-253,126,155
149,20375.0,4000,-7928,3891,-250,115,168
150,20511.0,4279,-7925,3605,-251,101,180
151,20648.0,4550,-7907,3312,-253,88,190
152,20785.0,4812,-7876,3014,-250,78,199
153,20922.0,5064,-7832,2712,-244,68,206
154,21058.0,5306,-7776,2405,-237,59,212
155,21195.0,5539,-7708,2094,-232,48,217
156,21332.0,5763,-7626,1776,-227,35,221
157,21469.0,5980,-7528,1451,-222,19,226
158,21605.0,6189,-7412,1118,-215,4,232
159,21742.0,6392,-7278,778,-206,-9,238
160,21879.0,6585,-7125,431,-199,-19,245
161,22016.0,6768,-6954,80,-193,-30,253
162,22152.0,6938,-6766,-272,-185,-44,262
163,22289.0,7094,-6565,-622,-182,-60,270
164,22426.0,7234,-6352,-969,-184,-75,279
165,22563.0,7358,-6130,-1309,-181,-88,288
166,22699.0,7468,-5899,-1644,-171,-103,296
167,22836.0,7565,-5659,-1973,-158,-120,302
168,22973.0,7651,-5412,-2297,-148,-134,308
169,23110.0,7725,-5157,-2616,-140,-145,312
170,23246.0,7789,-4895,-2931,-135,-153,315
171,23383.0,7839,-4627,-3241,-130,-162,317
172,23520.0,7877,-4354,-3545,-120,-173,318
173,23657.0,7898,-4077,-3841,-108,-187,319
174,23793.0,7904,-3797,-4129,-93,-204,320
175,23930.0,7893,-3513,-4408,-72,-222,320
176,24067.0,7867,-3224,-4679,-53,-237,320
177,24204.0,7826,-2929,-4942,-44,-247,319
178,24340.0,7771,-2627,-5197,-36,-255,318
179,24477.0,7703,-2317,-5445,-20,-266,315
180,24614.0,7621,-1997,-5685,0,-279,310
181,24750.0,7524,-1668,-5916,17,-292,305
182,24887.0,7411,-1331,-6139,32,-302,299
183,25024.0,7281,-986,-6351,45,-312,291
184,25161.0,7133,-636,-6553,57,-321,283
185,25297.0,6968,-280,-6744,72,-327,273
186,25434.0,6788,79,-6923,88,-327,263
187,25571.0,6593,440,-7090,105,-325,252
188,25708.0,6388,802,-7244,125,-327,240
189,25844.0,6173,1161,-7385,149,-335,229
190,25981.0,5949,1517,-7511,161,-344,217
191,26118.0,5717,1866,-7622,165,-352,206
192,26255.0,5478,2208,-7717,178,-358,195
193,26391.0,5230,2540,-7797,201,-362,183
194,26528.0,4974,2863,-7860,217,-360,171
195,26665.0,4709,3176,-7910,227,-353,157
196,26802.0,4437,3480,-7945,240,-347,141
197,26938.0,4158,3775,-7967,254,-350,123
198,27075.0,3872,4061,-7975,270,-356,104
199,27212.0,3579,4338,-7967,298,-358,85
200,27349.0,3278,4606,-7941,322,-355,68
201,27485.0,2970,4864,-7895,334,-352,53
202,27622.0,2654,5113,-7827,349,-343,41
203,27759.0,2330,5353,-7737,346,-304,34
204,27896.0,1998,5583,-7626,264,-222,29
205,28032.0,1793,5881,-7682,397,-335,-45
206,28169.0,1455,6106,-7557,361,-312,-48
207,28306.0,1109,6325,-7417,385,-311,-53
208,28443.0,756,6533,-7266,410,-319,-62
209,28579.0,396,6732,-7104,401,-313,-74
210,28716.0,33,6918,-6931,390,-285,-90
211,28853.0,-331,7090,-6747,396,-253,-108
212,28990.0,-694,7248,-6551,406,-233,-127
213,29126.0,-1053,7392,-6342,415,-223,-146
214,29263.0,-1405,7520,-6121,428,-217,-165
215,29400.0,-1749,7634,-5889,435,-208,-183
216,29536.0,-2085,7734,-5646,435,-198,-203
217,29673.0,-2412,7820,-5396,440,-185,-222
218,29810.0,-2730,7892,-5138,446,-165,-243
219,29947.0,-3040,7950,-4874,446,-142,-263
220,30083.0,-3343,7993,-4606,448,-123,-284
221,30220.0,-3638,8022,-4333,454,-110,-304
222,30357.0,-3925,8036,-4055,457,-97,-323
223,30494.0,-4205,8036,-3773,456,-81,-340
224,30630.0,-4479,8021,-3486,458,-61,-356
225,30767.0,-4745,7992,-3194,460,-40,-370
226,30904.0,-5005,7949,-2896,452,-17,-383
227,31041.0,-5258,7893,-2593,441,9,-394
228,31177.0,-5505,7822,-2282,427,35,-404
229,31314.0,-5747,7738,-1963,409,55,-412
230,31451.0,-5981,7638,-1635,391,70,-418
231,31587.999999999996,-6208,7522,-1297,374,84,-422
232,31724.000000000004,-6427,7389,-950,356,104,-425
233,31861.0,-6634,7239,-595,335,128,-427
234,31998.0,-6829,7072,-235,314,152,-428
235,32134.999999999996,-7010,6889,127,294,174,-430
236,32271.0,-7175,6692,489,275,194,-433
237,32408.0,-7323,6482,848,264,211,-438
238,32544.999999999996,-7455,6260,1203,259,226,-443
239,32682.000000000004,-7571,6030,1552,252,240,-448
240,32818.0,-7671,5791,1895,237,256,-452
241,32955.0,-7756,5545,2233,219,275,-455
242,33092.0,-7828,5292,2564,196,294,-456
243,33229.0,-7886,5034,2888,171,314,-455
244,33365.0,-7931,4769,3204,149,334,-453
245,33502.0,-7963,4498,3510,131,355,-450
246,33639.0,-7982,4221,3807,114,373,-445
247,33775.0,-7988,3938,4093,95,385,-440
248,33912.0,-7980,3649,4371,73,397,-433
249,34049.0,-7959,3355,4639,47,411,-426
250,34186.0,-7923,3054,4901,23,428,-416
251,34322.0,-7875,2746,5157,5,443,-405
252,34459.0,-7812,2431,5408,-10,452,-392
253,34596.0,-7735,2108,5653,-28,456,-379
254,34733.0,-7643,1775,5890,-47,456,-364
255,34869.0,-7534,1433,6120,-65,454,-349
256,35006.0,-7409,1082,6339,-86,450,-334
257,35143.0,-7265,724,6547,-107,447,-317
258,35280.0,-7104,359,6743,-122,444,-299
259,35416.0,-6924,-9,6927,-133,439,-279
260,35553.0,-6727,-379,7099,-145,434,-257
261,35690.0,-6516,-747,7258,-159,429,-234
262,35827.0,-6291,-1112,7404,-180,427,-210
263,35963.0,-6055,-1471,7536,-204,427,-188
264,36100.0,-5811,-1824,7653,-226,427,-167
265,36237.0,-5560,-2170,7753,-243,428,-150
266,36374.0,-5303,-2508,7836,-260,430,-135
267,36510.0,-5042,-2837,7901,-276,435,-121
268,36647.0,-4777,-3157,7951,-290,440,-108
269,36784.0,-4507,-3469,7985,-306,443,-93
270,36921.0,-4233,-3770,8006,-329,444,-77
271,37057.0,-3954,-4062,8015,-352,444,-58
272,37194.0,-3671,-4345,8012,-372,443,-37
273,37331.0,-3382,-4618,7996,-388,439,-15
274,37468.0,-3088,-4882,7968,-400,433,6
275,37604.0,-2787,-5138,7924,-410,423,27
276,37741.0,-2480,-5387,7864,-418,409,46
277,37878.0,-2165,-5630,7788,-423,389,63
278,38015.0,-1841,-5867,7693,-425,364,79
279,38151.0,-1507,-6097,7582,-427,339,96
280,38288.0,-1165,-6319,7454,-428,316,113
281,38425.0,-814,-6532,7309,-423,296,131
282,38561.0,-455,-6734,7149,-413,278,150
283,38698.0,-91,-6925,6974,-407,261,169
284,38835.0,276,-7101,6785,-405,245,187
285,38972.0,643,-7263,6582,-402,229,204
286,39108.0,1007,-7410,6366,-401,212,219
287,39245.0,1365,-7542,6140,-401,197,233
288,39382.0,1716,-7659,5905,-403,184,246
289,39519.0,2059,-7761,5663,-405,173,261
290,39655.0,2393,-7849,5415,-409,162,278
291,39792.0,2717,-7922,5163,-415,148,297
292,39929.0,3033,-7982,4905,-426,133,318
293,40066.0,3339,-8026,4642,-441,119,341
294,40202.0,3637,-8056,4373,-450,103,363
295,40339.0,3928,-8070,4097,-449,84,383
296,40476.0,4210,-8070,3814,-441,63,401
297,40613.0,4484,-8055,3524,-430,41,415
298,40749.0,4752,-8026,3227,-415,20,426
299,40886.0,5013,-7983,2923,-397,-1,434
300,41023.0,5268,-7926,2614,-382,-22,438
301,41160.0,5517,-7856,2297,-366,-45,439
302,41296.0,5760,-7771,1972,-346,-68,438
303,41433.0,5996,-7672,1638,-321,-90,435
304,41570.0,6226,-7556,1295,-291,-110,429
305,41707.0,6446,-7424,942,-262,-126,424
306,41843.0,6656,-7274,581,-242,-140,418
307,41980.0,6852,-7108,216,-228,-156,414
308,42117.0,7033,-6926,-152,-213,-176,412
309,42254.0,7198,-6730,-517,-196,-199,412
310,42390.0,7345,-6520,-878,-183,-219,415
311,42527.0,7474,-6299,-1231,-169,-235,420
312,42664.0,7586,-6068,-1576,-153,-248,425
313,42801.0,7682,-5830,-1912,-140,-262,431
314,42937.0,7762,-5584,-2241,-132,-278,435
315,43074.0,7829,-5332,-2563,-122,-295,439
316,43211.0,7883,-5074,-2878,-107,-314,440
317,43347.0,7924,-4809,-3188,-83,-336,441
318,43484.0,7953,-4538,-3492,-55,-360,440
319,43621.0,7971,-4261,-3788,-29,-383,439
320,43758.0,7976,-3979,-4078,-11,-402,435
321,43894.0,7969,-3690,-4360,8,-416,431
322,44031.0,7950,-3396,-4636,28,-426,423
323,44168.0,7918,-3095,-4905,45,-431,413
324,44305.0,7873,-2788,-5169,61,-434,400
325,44441.0,7815,-2473,-5427,84,-439,385
326,44578.0,7742,-2150,-5678,109,-446,368
327,44715.0,7654,-1817,-5923,125,-450,349
328,44852.0,7550,-1476,-6159,136,-447,331
329,44988.0,7428,-1125,-6385,148,-439,312
330,45125.0,7288,-766,-6600,162,-433,294
331,45262.0,7129,-402,-6801,179,-429,277
332,45399.0,6951,-33,-6989,197,-426,259
333,45535.0,6756,337,-7163,211,-424,240
334,45672.0,6546,706,-7321,226,-425,222
335,45809.0,6323,1072,-7463,247,-429,204
336,45946.0,6088,1432,-7589,266,-429,186
337,46082.0,5846,1786,-7698,276,-423,169
338,46219.0,5597,2133,-7790,290,-416,154
339,46356.0,5343,2471,-7865,313,-414,139
340,46493.0,5084,2800,-7926,332,-417,123
341,46629.0,4822,3120,-7974,345,-423,107
342,46766.0,4555,3431,-8010,366,-431,89
343,46903.0,4283,3732,-8035,393,-437,68
344,47040.0,4006,4024,-8050,417,-437,46
345,47176.0,3724,4305,-8053,435,-420,24
346,47313.0,3436,4576,-8042,440,-393,3
347,47450.0,3141,4839,-8015,428,-373,-15
348,47586.0,2840,5093,-7970,431,-373,-28
349,47723.0,2530,5340,-7905,463,-381,-37
350,47860.0,2213,5581,-7820,470,-373,-42
351,47997.0,1820,5905,-7708,425,-292,-91
352,48133.0,1493,6137,-7606,447,-289,-109
353,48270.0,1156,6360,-7487,466,-288,-126
354,48407.0,808,6574,-7352,457,-282,-144
355,48544.0,452,6777,-7201,434,-261,-161
356,48680.0,90,6966,-7035,441,-231,-179
357,48817.0,-276,7141,-6855,475,-209,-196
358,48954.0,-641,7300,-6663,485,-204,-213
359,49091.0,-1002,7443,-6459,467,-202,-230
360,49228.0,-1357,7570,-6242,458,-191,-246
361,49364.0,-1705,7682,-6013,467,-168,-264
362,49501.0,-2044,7779,-5771,472,-146,-281
363,49638.0,-2376,7861,-5518,473,-129,-300
364,49775.0,-2700,7929,-5253,474,-113,-319
365,49911.0,-3017,7982,-4980,475,-93,-339
366,50048.0,-3325,8022,-4701,474,-72,-359
367,50185.0,-3625,8048,-4419,474,-55,-378
368,50322.0,-3917,8060,-4134,471,-40,-397
369,50458.0,-4199,8058,-3848,465,-22,-412
370,50595.0,-4472,8042,-3559,459,1,-425
371,50732.0,-4738,8014,-3266,448,24,-434
372,50869.0,-4997,7973,-2966,428,43,-440
373,51005.0,-5252,7920,-2658,410,60,-442
374,51142.0,-5503,7854,-2339,399,76,-443
375,51279.0,-5748,7775,-2009,384,92,-442
376,51416.0,-5988,7682,-1670,362,110,-440
377,51552.0,-6220,7574,-1323,341,129,-438
378,51689.0,-6442,7449,-969,323,150,-436
379,51826.0,-6652,7307,-612,305,169,-436
380,51963.0,-6848,7148,-253,288,185,-435
381,52099.0,-7028,6973,107,274,202,-435
382,52236.0,-7193,6782,466,260,223,-436
383,52373.0,-7341,6576,822,243,246,-436
384,52510.0,-7473,6358,1175,222,265,-437
385,52646.0,-7588,6129,1522,197,279,-437
386,52783.0,-7686,5890,1862,176,294,-439
387,52920.0,-7769,5642,2194,166,314,-440
388,53057.0,-7836,5387,2517,158,335,-442
389,53193.0,-7888,5124,2831,143,354,-445
390,53330.0,-7927,4855,3137,124,368,-446
391,53467.0,-7954,4578,3436,106,380,-446
392,53604.0,-7970,4295,3730,87,392,-444
393,53740.0,-7975,4005,4019,65,405,-439
394,53877.0,-7970,3710,4304,43,419,-430
395,54014.0,-7953,3410,4584,23,431,-419
396,54151.0,-7924,3104,4858,5,438,-405
397,54287.0,-7881,2793,5126,-13,442,-389
398,54424.0,-7823,2475,5385,-33,444,-372
399,54561.0,-7750,2150,5636,-55,448,-354
400,54698.0,-7661,1817,5878,-73,453,-336
401,54834.0,-7557,1477,6111,-85,454,-318
402,54971.0,-7436,1128,6333,-97,449,-301
403,55108.0,-7298,773,6546,-110,440,-284
404,55245.0,-7143,413,6748,-123,433,-267
405,55381.0,-6970,49,6936,-139,432,-250
406,55518.0,-6779,-316,7110,-160,434,-233
407,55655.0,-6572,-680,7269,-180,433,-215
408,55792.0,-6349,-1041,7412,-197,431,-198
409,55928.0,-6114,-1397,7538,-210,428,-181
410,56065.0,-5870,-1747,7649,-225,427,-164
411,56202.0,-5619,-2090,7746,-242,428,-147
412,56339.0,-5364,-2426,7829,-265,430,-130
413,56475.0,-5106,-2755,7899,-289,433,-114
414,56612.0,-4845,-3076,7955,-311,434,-97
415,56749.0,-4579,-3390,7997,-332,433,-79
416,56886.0,-4308,-3695,8024,-351,432,-60
417,57022.0,-4031,-3991,8036,-365,432,-40
418,57159.0,-3746,-4279,8032,-377,431,-20
419,57296.0,-3453,-4558,8014,-393,426,1
420,57433.0,-3154,-4829,7981,-408,417,21
421,57569.0,-2849,-5092,7934,-416,404,40
422,57706.0,-2537,-5349,7873,-418,390,58
423,57843.0,-2219,-5598,7798,-418,374,75
424,57980.0,-1893,-5841,7708,-417,356,91
425,58116.0,-1557,-6077,7601,-414,336,107
426,58253.0,-1213,-6305,7476,-408,317,122
427,58390.0,-859,-6524,7334,-401,298,138
428,58527.0,-496,-6730,7175,-397,278,154
429,58664.0,-129,-6924,7001,-398,260,171
430,58800.0,241,-7103,6813,-402,243,189
431,58937.0,609,-7267,6615,-402,230,207
432,59074.0,972,-7414,6408,-403,216,225
433,59211.0,1328,-7544,6192,-408,200,243
434,59347.0,1676,-7659,5968,-414,183,261
435,59484.0,2015,-7758,5735,-419,167,279
436,59621.0,2346,-7842,5492,-426,152,297
437,59758.0,2669,-7912,5240,-432,137,315
438,59894.0,2984,-7967,4978,-433,120,333
439,60031.0,3292,-8008,4708,-429,101,350
440,60168.0,3591,-8034,4429,-423,80,367
441,60305.0,3882,-8047,4144,-417,59,382
442,60441.0,4163,-8045,3854,-414,40,395
443,60578.0,4436,-8029,3560,-411,23,406
444,60715.0,4701,-8001,3260,-401,5,413
445,60852.0,4959,-7960,2954,-384,-16,418
446,60988.0,5211,-7906,2642,-364,-40,421
447,61125.0,5458,-7840,2322,-342,-63,422
448,61262.0,5701,-7761,1995,-319,-80,421
449,61399.0,5938,-7668,1660,-300,-92,420
450,61535.0,6167,-7560,1319,-287,-105,419
451,61672.0,6386,-7435,973,-273,-123,419
452,61809.0,6594,-7294,622,-256,-143,419
453,61946.0,6790,-7136,267,-237,-162,419
454,62082.0,6971,-6961,-89,-220,-178,419
455,62219.0,7137,-6771,-447,-203,-194,419
456,62356.0,7289,-6566,-804,-187,-210,419
457,62493.0,7426,-6349,-1158,-170,-228,419
458,62629.00000000001,7547,-6120,-1509,-151,-248,419
459,62766.0,7653,-5882,-1853,-135,-268,419
460,62903.0,7743,-5635,-2189,-118,-284,420
461,63040.0,7818,-5380,-2516,-95,-297,421
462,63175.99999999999,7878,-5118,-2835,-71,-312,422
463,63312.99999999999,7923,-4848,-3145,-56,-332,422
464,63450.00000000001,7956,-4572,-3448,-47,-353,422
465,63587.00000000001,7976,-4289,-3745,-34,-371,419
466,63723.0,7984,-4000,-4036,-15,-382,413
467,63860.0,7980,-3705,-4322,6,-391,405
468,63997.0,7963,-3405,-4602,29,-401,393
469,64134.0,7933,-3099,-4874,49,-408,380
470,64269.99999999999,7888,-2787,-5138,66,-411,364
471,64407.00000000001,7827,-2469,-5393,83,-407,348
472,64544.00000000001,7752,-2144,-5640,98,-402,331
473,64681.0,7660,-1812,-5879,110,-399,314
474,64817.0,7552,-1471,-6110,127,-397,298
475,64954.0,7429,-1123,-6335,149,-395,282
476,65090.99999999999,7289,-768,-6553,165,-395,266
477,65227.99999999999,7133,-407,-6761,173,-393,249
478,65364.00000000001,6959,-43,-6957,185,-389,232
479,65501.00000000001,6767,323,-7138,202,-384,214
480,65638.0,6559,687,-7301,217,-384,196
481,65775.0,6335,1049,-7445,232,-387,178
482,65911.0,6099,1406,-7568,250,-389,160
