DeliveryTest,CMU,1999
78,78A,0D
1,Terminal_Voltage,,, V,0.001091759315,0.0,0.0,-32767,32767,1,1,P
2,U RMS Sig (a) a,,, V,0.000632343278,0.0,0.0,-32767,32767,1,1,P
3,U RMS Sig (b) b,,, V,0.000630298951,0.0,0.0,-32767,32767,1,1,P
4,U RMS Sig (c) c,,, V,0.000630390511,0.0,0.0,-32767,32767,1,1,P
5,I RMS Sig (a) a,,, A,0.000010840101,0.0,0.0,-32767,32767,1,1,P
6,I RMS Sig (b) b,,, A,0.000010785632,0.0,0.0,-32767,32767,1,1,P
7,I RMS Sig (c) c,,, A,0.000010800164,0.0,0.0,-32767,32767,1,1,P
8,U RMS Sig (ab) ab,,, V,0.001090765054,0.0,0.0,-32767,32767,1,1,P
9,U RMS Sig (bc) bc,,, V,0.001094400390,0.0,0.0,-32767,32767,1,1,P
10,U RMS Sig (ca) ca,,, V,0.001095663671,0.0,0.0,-32767,32767,1,1,P
11,SGLP Sig (a) Apparent a,,, VA,0.000448997184,0.0,0.0,-32767,32767,1,1,P
12,SGLP Sig (a) Active a,,, W,0.000390549082,0.0,0.0,-32767,32767,1,1,P
13,SGLP Sig (a) Reactive a,,, var,0.000221760004,0.0,0.0,-32767,32767,1,1,P
14,SGLP Sig (a) Cos Phi a,,, ,0.000030518265,0.0,0.0,-32767,32767,1,1,P
15,SGLP Sig (b) Apparent b,,, VA,0.000445380428,0.0,0.0,-32767,32767,1,1,P
16,SGLP Sig (b) Active b,,, W,0.000385726230,0.0,0.0,-32767,32767,1,1,P
17,SGLP Sig (b) Reactive b,,, var,0.000223201860,0.0,0.0,-32767,32767,1,1,P
18,SGLP Sig (b) Cos Phi b,,, ,0.000030518057,0.0,0.0,-32767,32767,1,1,P
19,SGLP Sig (c) Apparent c,,, VA,0.000446097453,0.0,0.0,-32767,32767,1,1,P
20,SGLP Sig (c) Active c,,, W,0.000388143601,0.0,0.0,-32767,32767,1,1,P
21,SGLP Sig (c) Reactive c,,, var,0.000222741154,0.0,0.0,-32767,32767,1,1,P
22,SGLP Sig (c) Cos Phi c,,, ,0.000030515819,0.0,0.0,-32767,32767,1,1,P
23,SUMP Sig Apparent,,, VA,0.001339067008,0.0,0.0,-32767,32767,1,1,P
24,SUMP Sig Active,,, W,0.001162620686,0.0,0.0,-32767,32767,1,1,P
25,SUMP Sig Reactive,,, var,0.000664883357,0.0,0.0,-32767,32767,1,1,P
26,SUMP Sig Cos Phi,,, ,0.000030517999,0.0,0.0,-32767,32767,1,1,P
27,U POSSEQ Sig Mag,,, V,0.000630362767,0.0,0.0,-32767,32767,1,1,P
28,U POSSEQ Sig Phase,,, rad,0.000095418962,0.0,0.0,-32767,32767,1,1,P
29,I POSSEQ Sig Mag,,, A,0.000010806829,0.0,0.0,-32767,32767,1,1,P
30,I POSSEQ Sig Phase,,, rad,0.000095537698,0.0,0.0,-32767,32767,1,1,P
31,U NEGSEQ Sig Mag,,, V,0.000059998365,0.0,0.0,-32767,32767,1,1,P
32,U NEGSEQ Sig Phase,,, rad,0.000095131549,0.0,0.0,-32767,32767,1,1,P
33,I NEGSEQ Sig Mag,,, A,0.000001030270,0.0,0.0,-32767,32767,1,1,P
34,I NEGSEQ Sig Phase,,, rad,0.000095634700,0.0,0.0,-32767,32767,1,1,P
35,U ZEROSEQ Sig Mag,,, V,0.000008128296,0.0,0.0,-32767,32767,1,1,P
36,U ZEROSEQ Sig Phase,,, rad,0.000095497752,0.0,0.0,-32767,32767,1,1,P
37,I ZEROSEQ Sig Mag,,, A,0.000001000000,0.0,0.0,-563,563,1,1,P
38,I ZEROSEQ Sig Phase,,, rad,0.000095204427,0.0,0.0,-32767,32767,1,1,P
39,U NEGSEQRATIO Sig,,, %,0.074156015516,0.0,0.0,-32767,32767,1,1,P
40,I NEGSEQRATIO Sig,,, %,0.028074525590,0.0,0.0,-32767,32767,1,1,P
41,U ZEROSEQRATIO Sig,,, %,0.048126502113,0.0,0.0,-32767,32767,1,1,P
42,I ZEROSEQRATIO Sig,,, %,0.022336760436,0.0,0.0,-32767,32767,1,1,P
43,U PH Sig (a) a,,, rad,0.000094825880,0.0,0.0,-32767,32767,1,1,P
44,U PH Sig (b) b,,, rad,0.000094856804,0.0,0.0,-32767,32767,1,1,P
45,U PH Sig (c) c,,, rad,0.000094926739,0.0,0.0,-32767,32767,1,1,P
46,I PH Sig (a) a,,, rad,0.000095212314,0.0,0.0,-32767,32767,1,1,P
47,I PH Sig (b) b,,, rad,0.000095171269,0.0,0.0,-32767,32767,1,1,P
48,I PH Sig (c) c,,, rad,0.000095349965,0.0,0.0,-32767,32767,1,1,P
49,U FRQ Sig (a) a,,, Hz,0.000001000000,0.0,0.0,-6786,6786,1,1,P
50,U FRQ Sig (b) b,,, Hz,0.000001000000,0.0,0.0,-7067,7067,1,1,P
51,U FRQ Sig (c) c,,, Hz,0.000001000000,0.0,0.0,-7071,7071,1,1,P
52,I FRQ Sig (a) a,,, Hz,0.000001000000,0.0,0.0,-605,605,1,1,P
53,I FRQ Sig (b) b,,, Hz,0.000001000000,0.0,0.0,-610,610,1,1,P
54,I FRQ Sig (c) c,,, Hz,0.000001000000,0.0,0.0,-570,570,1,1,P
55,U TRMS PQ1 Sig (a) a,,, V,0.000628191854,0.0,0.0,-32767,32767,1,1,P
56,U TRMS PQ1 Sig (b) b,,, V,0.000627446924,0.0,0.0,-32767,32767,1,1,P
57,U TRMS PQ1 Sig (c) c,,, V,0.000625969225,0.0,0.0,-32767,32767,1,1,P
58,I TRMS PQ3 Sig (a) a,,, A,0.000010690586,0.0,0.0,-32767,32767,1,1,P
59,I TRMS PQ3 Sig (b) b,,, A,0.000010724890,0.0,0.0,-32767,32767,1,1,P
60,I TRMS PQ3 Sig (c) c,,, A,0.000010723039,0.0,0.0,-32767,32767,1,1,P
61,SGLPC Sig (a) Sc a,,, VA,0.000001000000,0.0,0.0,-9656,9656,1,1,P
62,SGLPC Sig (a) Pc a,,, W,0.000001000000,0.0,0.0,-9405,9405,1,1,P
63,SGLPC Sig (a) Nc a,,, var,0.000001000000,0.0,0.0,-9768,9768,1,1,P
64,SGLPC Sig (a) PFc a,,, ,0.000001000000,0.0,0.0,-184,184,1,1,P
65,SGLPC Sig (b) Sc b,,, VA,0.000001000000,0.0,0.0,-10123,10123,1,1,P
66,SGLPC Sig (b) Pc b,,, W,0.000001000000,0.0,0.0,-10188,10188,1,1,P
67,SGLPC Sig (b) Nc b,,, var,0.000001000000,0.0,0.0,-8524,8524,1,1,P
68,SGLPC Sig (b) PFc b,,, ,0.000001000000,0.0,0.0,-169,169,1,1,P
69,SGLPC Sig (c) Sc c,,, VA,0.000001000000,0.0,0.0,-6632,6632,1,1,P
70,SGLPC Sig (c) Pc c,,, W,0.000001000000,0.0,0.0,-8290,8290,1,1,P
71,SGLPC Sig (c) Nc c,,, var,0.000001000000,0.0,0.0,-10477,10477,1,1,P
72,SGLPC Sig (c) PFc c,,, ,0.000001000000,0.0,0.0,-213,213,1,1,P
73,SUMPC Sig Sc,,, VA,0.000001000000,0.0,0.0,-20794,20794,1,1,P
74,SUMPC Sig Pc,,, W,0.000001000000,0.0,0.0,-25394,25394,1,1,P
75,SUMPC Sig Nc,,, var,0.000001000000,0.0,0.0,-25038,25038,1,1,P
76,SUMPC Sig PFc,,, ,0.000001000000,0.0,0.0,-149,149,1,1,P
77,QCorr,,, VAr,0.000641832551,0.0,0.0,-32767,32767,1,1,P
78,PCorr,,, W,0.001175496954,0.0,0.0,-32767,32767,1,1,P
 50.000000
0
0.00,1601
24/08/2022,12:16:15.950001
24/08/2022,12:16:25.950001
ASCII
1
1,0,794,552,891,937,6,14,5,291,28,316,1,1,1,-28621,1,1,0,21296,1,1,0,-5913,1,1,1,11600,171,20007,4,28478,1898,18516,74,-24844,59930,-6360,43,3746,1428,5879,9412,4162,-1968,-7650,-7759,-29616,1444,10651,49937645,49937544,49937712,49967119,49967045,49967112,834,1128,1135,1023,415,492,25331359,21814127,12854254,828546,25174978,21692878,12749932,829124,25119505,21645093,12720562,829146,75689831,65218876,38386256,828968,1,1
2,9999,789,558,895,913,8,17,13,281,12,293,1,1,1,697,1,1,0,18261,1,1,1,18313,1,1,1,32653,166,-13297,9,-5155,1743,-14096,70,19731,59761,26560,74,23888,1353,2626,9678,3419,30873,25557,25412,14473,-30254,15045,49937645,49937544,49937712,49967119,49967045,49967112,838,1126,1125,1023,415,492,25331359,21814127,12854254,828546,25174978,21692878,12749932,829124,25119505,21645093,12720562,829146,75689831,65218876,38386256,828968,1,1
3,19999,789,557,892,917,3,5,11,288,20,293,1,1,1,25303,1,1,0,-22308,1,1,0,31405,1,1,1,32647,158,19418,5,-29265,1857,19104,43,4951,59709,-6324,36,-7534,1507,3001,10115,3075,-2167,-7756,-7505,-9389,16642,-10507,49937645,49937544,49937712,49967119,49967045,49967112,821,1142,1113,1023,415,492,25331359,21814127,12854254,828546,25174978,21692878,12749932,829124,25119505,21645093,12720562,829146,75689831,65218876,38386256,828968,1,1
4,29999,797,552,885,952,11,19,7,297,42,320,1,1,1,-19107,1,1,0,-31249,1,1,0,28495,1,1,1,-31808,162,-12849,5,11279,2052,-14336,99,-19507,60097,26616,77,-8807,1634,6166,9989,5876,31319,25316,25603,-11762,-4566,30906,49937645,49937544,49937712,49967119,49967045,49967112,814,1147,1117,1023,415,492,25331359,21814127,12854254,828546,25174978,21692878,12749932,829124,25119505,21645093,12720562,829146,75689831,65218876,38386256,828968,1,1
5,39999,795,547,895,941,10,4,7,303,29,330,1,1,1,23530,1,1,0,-21491,1,1,0,-10827,1,1,1,-5156,180,20080,1,-8087,1962,18534,71,-7357,59789,-6215,24,-17798,1399,24544,8897,10016,-1515,-7530,-7719,-9593,16515,-27690,49937645,49937544,49937712,49967119,49967045,49967112,824,1135,1138,1023,415,492,25331359,21814127,12854254,828546,25174978,21692878,12749932,829124,25119505,21645093,12720562,829146,75689831,65218876,38386256,828968,1,1
6,50000,786,544,897,914,20,20,16,300,14,312,1,1,1,32708,1,1,0,17778,1,1,0,-27545,1,1,1,10485,178,-13413,7,-30256,1846,-14235,124,16995,59242,26507,136,-28195,1337,6054,8957,8105,31259,25437,25246,30504,-30188,-13816,49937645,49937544,49937712,49967119,49967045,49967112,819,1132,1137,1023,415,492,25331359,21814127,12854254,828546,25174978,21692878,12749932,829124,25119505,21645093,12720562,829146,75689831,65218876,38386256,828968,1,1
7,59999,785,551,890,913,13,4,10,297,18,301,1,1,1,32724,1,1,0,25884,1,1,0,-23392,1,1,1,9805,164,19163,7,-1626,1901,18925,36,-14210,59247,-6404,61,5142,1490,1806,9689,3759,-1998,-7892,-7654,-1453,-930,17190,49937645,49937544,49937712,49967119,49967045,49967112,810,1128,1119,1015,413,490,25331359,21814127,12854254,828546,25174978,21692878,12749932,829124,25119505,21645093,12720562,829146,75689831,65218876,38386256,828968,1,1
8,70000,792,552,897,924,8,12,13,303,19,310,1,1,1,8981,1,1,0,-25752,1,1,0,-30776,1,1,1,-31027,169,-13519,9,24946,1950,-14018,33,17015,59648,26659,63,-2869,1488,1246,9496,3007,31420,25386,25569,17710,-702,-11168,49937645,49937544,49937712,49967119,49967045,49967112,811,1129,1110,1015,413,490,25331359,21814127,12854254,828546,25174978,21692878,12749932,829124,25119505,21645093,12720562,829146,75689831,65218876,38386256,828968,1,1
9,79999,795,558,902,923,4,6,21,304,15,310,1,1,1,-32336,1,1,0,-9989,1,1,0,-839,1,1,1,-4717,171,19286,7,-16773,1928,18946,72,32805,59879,-6200,92,10938,1449,3735,9391,5878,-1658,-7676,-7538,29638,12108,9237,49937645,49937544,49937712,49967119,49967045,49967112,824,1140,1120,1015,413,490,25331359,21814127,12854254,828546,25174978,21692878,12749932,829124,25119505,21645093,12720562,829146,75689831,65218876,38386256,828968,1,1
10,90000,790,556,901,911,13,13,17,310,16,306,1,1,1,-6187,1,1,0,10481,1,1,0,20274,1,1,1,19528,170,-14061,10,8382,1948,-13916,69,6957,59411,26675,84,31778,1473,2365,9380,3541,31538,25312,25588,12916,-27707,-30943,49937645,49937544,49937712,49967119,49967045,49967112,822,1142,1118,1015,413,490,25331359,21814127,12854254,828546,25174978,21692878,12749932,829124,25119505,21645093,12720562,829146,75689831,65218876,38386256,828968,1,1
11,100000,792,548,905,922,8,8,7,307,19,305,1,1,1,-16511,1,1,0,-12769,1,1,0,10975,1,1,1,-9496,167,19285,6,-24099,1952,19377,34,-22826,59786,-6304,22,9815,1502,1891,9602,1497,-1868,-7820,-7491,-23905,12915,5433,49937645,49937544,49937712,49967119,49967045,49967112,817,1137,1115,1015,413,490,25331359,21814127,12854254,828546,25174978,21692878,12749932,829124,25119505,21645093,12720562,829146,75689831,65218876,38386256,828968,1,1
12,109999,791,535,914,922,13,9,7,310,7,311,1,1,1,-8443,1,1,0,30776,1,1,0,-16765,1,1,1,6942,176,-13209,6,-18129,1918,-13327,53,-2646,59733,26638,63,-22015,1401,3187,9107,4632,31314,25492,25574,-15568,29089,-18328,49937645,49937544,49937712,49967119,49967045,49967112,824,1141,1122,1015,413,490,25331359,21814127,12854254,828546,25174978,21692878,12749932,829124,25119505,21645093,12720562,829146,75689831,65218876,38386256,828968,1,1
13,119999,790,542,913,912,7,11,13,321,7,316,1,1,1,32728,1,1,0,32225,1,1,0,-13118,1,1,1,17138,181,19149,5,193,1958,19433,65,-27777,59335,-6172,74,3527,1388,4219,8778,5909,-1380,-7673,-7538,-864,-5734,13288,49937645,49937544,49937712,49967119,49967045,49967112,815,1152,1112,1015,413,490,25331359,21814127,12854254,828546,25174978,21692878,12749932,829124,25119505,21645093,12720562,829146,75689831,65218876,38386256,828968,1,1
14,129999,795,563,902,916,15,10,16,318,25,310,1,1,1,-2960,1,1,0,21451,1,1,0,28146,1,1,1,31102,169,-14350,9,8168,2027,-13980,52,6002,59626,26746,96,26454,1539,2007,9451,4548,31761,25237,25690,14184,-31860,31214,49937645,49937544,49937712,49967119,49967045,49967112,812,1155,1106,1015,413,490,25331359,21814127,12854254,828546,25174978,21692878,12749932,829124,25119505,21645093,12720562,829146,75689831,65218876,38386256,828968,1,1
15,140000,795,556,903,925,13,12,30,298,26,296,1,1,1,-24754,1,1,0,17613,1,1,1,26980,1,1,1,29673,159,19377,16,30793,1937,19528,30,4951,60135,-6212,119,-13528,1571,605,10185,3019,-1992,-7751,-7292,-27476,2815,-13589,49937645,49937544,49937712,49967119,49967045,49967112,831,1144,1125,1015,413,490,25331359,21814127,12854254,828546,25174978,21692878,12749932,829124,25119505,21645093,12720562,829146,75689831,65218876,38386256,828968,1,1
16,150000,796,540,906,942,9,17,30,294,23,308,1,1,1,-32079,1,1,0,798,1,1,1,17457,1,1,1,24943,165,-12464,18,-4435,1920,-13374,89,30770,60361,26686,63,15945,1497,1677,9819,1438,31021,25597,25743,55,-24258,15047,49937645,49937544,49937712,49967119,49967045,49967112,843,1140,1132,1015,413,490,25331359,21814127,12854254,828546,25174978,21692878,12749932,829124,25119505,21645093,12720562,829146,75689831,65218876,38386256,828968,1,1
17,159999,795,539,899,944,9,24,9,296,28,321,1,1,1,-32457,1,1,-1,7877,1,1,0,-13219,1,1,1,-6867,176,20479,12,26839,1908,18968,101,-16045,60050,-6270,40,13531,1398,2909,9179,1405,-1906,-7486,-7648,32543,6491,-28443,49937645,49937544,49937712,49967119,49967045,49967112,818,1147,1138,1015,413,490,25331359,21814127,12854254,828546,25174978,21692878,12749932,829124,25119505,21645093,12720562,829146,75689831,65218876,38386256,828968,1,1
18,170000,793,555,900,923,5,33,12,293,14,302,1,1,1,-19196,1,1,0,30479,1,1,0,-22860,1,1,1,21333,168,-13273,10,-17559,1852,-13934,154,6002,59941,26672,103,-31035,1419,5124,9586,4184,31187,25547,25563,-11858,29412,-15875,49937645,49937544,49937712,49967119,49967045,49967112,814,1141,1145,1015,413,490,25331359,21814127,12854254,828546,25174978,21692878,12749932,829124,25119505,21645093,12720562,829146,75689831,65218876,38386256,828968,1,1
19,180000,790,553,901,915,6,24,16,300,20,297,1,1,1,-14093,1,1,0,32388,1,1,0,9541,1,1,1,30888,163,19297,2,2787,1909,19531,142,-32650,59666,-6133,104,-4993,1508,22454,9835,20075,-1805,-7652,-7294,-22965,-9225,6113,49937645,49937544,49937712,49967119,49967045,49967112,833,1139,1128,1015,413,490,25331359,21814127,12854254,828546,25174978,21692878,12749932,829124,25119505,21645093,12720562,829146,75689831,65218876,38386256,828968,1,1
20,189999,793,546,913,919,22,12,24,319,22,309,1,1,1,-15514,1,1,0,-31397,1,1,0,30159,1,1,1,30610,172,-13849,19,9250,2009,-13388,33,-9004,59714,26724,52,19748,1505,569,9334,1126,31600,25333,25738,9793,-10809,29838,49937645,49937544,49937712,49967119,49967045,49967112,829,1145,1118,1015,413,490,25331359,21814127,12854254,828546,25174978,21692878,12749932,829124,25119505,21645093,12720562,829146,75689831,65218876,38386256,828968,1,1
21,200000,798,550,912,931,10,9,20,316,21,315,1,1,1,-30410,1,1,0,-7800,1,1,0,31017,1,1,1,32766,172,19344,12,-32136,2021,19404,34,10000,60111,-6172,46,-11606,1516,927,9409,1537,-1554,-7744,-7388,-30536,11310,-10800,49937645,49937544,49937712,49967119,49967045,49967112,828,1140,1121,1015,413,490,25331359,21814127,12854254,828546,25174978,21692878,12749932,829124,25119505,21645093,12720562,829146,75689831,65218876,38386256,828968,1,1
22,209999,795,549,893,940,6,17,12,301,28,320,1,1,1,2782,1,1,0,29942,1,1,1,-19845,1,1,1,16180,170,-12899,11,-21079,1987,-14108,27,3175,59892,26784,46,13499,1500,783,9434,1695,31571,25572,25653,-18943,21093,2243,49937645,49937544,49937712,49967119,49967045,49967112,828,1137,1127,1015,413,490,25331359,21814127,12854254,828546,25174978,21692878,12749932,829124,25119505,21645093,12720562,829146,75689831,65218876,38386256,828968,1,1
23,219999,792,550,892,932,8,15,8,296,24,314,1,1,1,-7413,1,1,1,3795,1,1,0,-26755,1,1,1,-24653,170,19985,7,1807,1929,18916,67,23902,59743,-6113,39,30359,1462,3108,9454,2227,-1649,-7495,-7460,17251,-22756,19065,49937645,49937544,49937712,49967119,49967045,49967112,827,1140,1129,1015,413,490,25331359,21814127,12854254,828546,25174978,21692878,12749932,829124,25119505,21645093,12720562,829146,75689831,65218876,38386256,828968,1,1
24,230000,795,547,901,936,9,12,9,304,21,319,1,1,1,-29588,1,1,0,22269,1,1,0,5054,1,1,1,28485,174,-12885,2,-27970,1963,-13868,99,-4887,59935,26848,5,17257,1454,20279,9263,1106,31631,25672,25703,-6157,16933,-25456,49937645,49937544,49937712,49967119,49967045,49967112,827,1142,1129,1015,413,490,25331359,21814127,12854254,828546,25174978,21692878,12749932,829124,25119505,21645093,12720562,829146,75689831,65218876,38386256,828968,1,1
25,239999,794,544,903,933,5,23,5,306,18,318,1,1,1,-28984,1,1,0,32030,1,1,0,-168,1,1,1,32752,174,19934,10,18234,1955,19255,73,-27118,59862,-6114,69,-7788,1443,2411,9225,2769,-1578,-7511,-7437,26326,-5254,-23931,49937645,49937544,49937712,49967119,49967045,49967112,832,1143,1138,1015,413,490,25331359,21814127,12854254,828546,25174978,21692878,12749932,829124,25119505,21645093,12720562,829146,75689831,65218876,38386256,828968,1,1
26,250000,790,544,904,920,7,17,7,300,10,308,1,1,1,23368,1,1,0,32518,1,1,0,-4228,1,1,1,30741,174,-13145,9,-19698,1869,-13703,21,4709,59644,26720,64,23411,1386,745,9227,2866,31352,25614,25581,-26607,24234,7636,49937645,49937544,49937712,49967119,49967045,49967112,837,1142,1134,1015,413,490,25331359,21814127,12854254,828546,25174978,21692878,12749932,829124,25119505,21645093,12720562,829146,75689831,65218876,38386256,828968,1,1
27,259999,797,548,913,927,15,7,5,307,11,308,1,1,1,10765,1,1,0,-26463,1,1,0,17109,1,1,1,-413,172,19703,6,-15352,1920,19611,45,-6067,60139,-6096,67,-19283,1434,2569,9375,4793,-1693,-7507,-7347,-14668,32154,-18027,49937645,49937544,49937712,49967119,49967045,49967112,834,1149,1113,1012,416,501,25331359,21814127,12854254,828546,25174978,21692878,12749932,829124,25119505,21645093,12720562,829146,75689831,65218876,38386256,828968,1,1
28,270000,797,544,918,929,22,13,11,318,18,314,1,1,1,1612,1,1,0,-15501,1,1,0,32769,1,1,1,32198,174,-13407,12,9055,2008,-13271,75,21126,60073,26827,63,22318,1483,2039,9257,2116,31663,25516,25816,15553,-18905,25761,49937645,49937544,49937712,49967119,49967045,49967112,830,1158,1111,1012,416,501,25331359,21814127,12854254,828546,25174978,21692878,12749932,829124,25119505,21645093,12720562,829146,75689831,65218876,38386256,828968,1,1
29,280000,791,545,899,927,5,19,7,310,17,319,1,1,1,31543,1,1,0,32302,1,1,0,32556,1,1,1,32555,175,19672,5,17643,1979,19118,45,-29595,59488,-6108,110,-5663,1453,3168,9119,9626,-1418,-7577,-7462,-4293,-5780,-6232,49937645,49937544,49937712,49967119,49967045,49967112,830,1147,1128,1012,416,501,25331359,21814127,12854254,828546,25174978,21692878,12749932,829124,25119505,21645093,12720562,829146,75689831,65218876,38386256,828968,1,1
30,289999,789,547,889,930,11,20,4,300,25,323,1,1,1,19562,1,1,1,14510,1,1,0,-3030,1,1,1,26617,177,-12987,10,-29622,1929,-14421,83,-11571,59409,26725,35,21408,1402,2934,9011,1525,31610,25608,25440,-24730,13839,-23123,49937645,49937544,49937712,49967119,49967045,49967112,830,1128,1133,1012,416,501,25331359,21814127,12854254,828546,25174978,21692878,12749932,829124,25119505,21645093,12720562,829146,75689831,65218876,38386256,828968,1,1
31,300000,799,545,912,940,19,4,14,310,21,329,1,1,1,-32753,1,1,0,-24381,1,1,0,-26697,1,1,1,-29909,186,20102,3,-28106,1931,18989,89,-29428,60177,-6116,107,24921,1337,10964,8699,16118,-1451,-7380,-7621,31249,17965,18872,49937645,49937544,49937712,49967119,49967045,49967112,832,1135,1124,1012,416,501,25331359,21814127,12854254,828546,25174978,21692878,12749932,829124,25119505,21645093,12720562,829146,75689831,65218876,38386256,828968,1,0
32,310000,802,549,911,943,21,18,4,296,25,319,1,1,1,-29396,1,1,0,-2616,1,1,0,12515,1,1,1,-15935,180,-12498,13,-4341,1853,-13964,24,6073,60602,26775,88,-13287,1324,582,9036,2734,31339,25847,25520,-6588,-22913,13043,49937645,49937544,49937712,49967119,49967045,49967112,831,1151,1129,1012,416,501,25331359,21814127,12854254,828546,25174978,21692878,12749932,829124,25119505,21645093,12720562,829146,75689831,65218876,38386256,828968,1,1
33,319999,791,553,885,932,15,4,16,287,28,306,1,1,1,13467,1,1,0,-23971,1,1,1,19424,1,1,1,31901,162,20109,7,21031,1904,18934,109,6047,59755,-6131,24,152,1512,5551,9903,1460,-1863,-7510,-7396,10193,17641,-17182,49937645,49937544,49937712,49967119,49967045,49967112,818,1150,1133,1012,416,501,25331359,21814127,12854254,828546,25174978,21692878,12749932,829124,25119505,21645093,12720562,829146,75689831,65218876,38386256,828968,1,1
