DeliveryTest,CMU,1999
6,6A,0D
1,U Sig (a) a,,, V,0.002878724323,0.0,0.0,-32767,32767,1,1,P
2,U Sig (b) b,,, V,0.002878262838,0.0,0.0,-32767,32767,1,1,P
3,U Sig (c) c,,, V,0.002860830160,0.0,0.0,-32767,32767,1,1,P
4,I Sig (a) a,,, A,0.000030913093,0.0,0.0,-32767,32767,1,1,P
5,I Sig (b) b,,, A,0.000030753144,0.0,0.0,-32767,32767,1,1,P
6,I Sig (c) c,,, A,0.000030663883,0.0,0.0,-32767,32767,1,1,P
 50.000000
0
0.00,45457
23/08/2022,16:36:30.999968
23/08/2022,16:36:32.000000
ASCII
1
1,0,-3598,11208,-7883,7083,23960,-31213
2,66,-3901,11297,-7805,6439,24428,-31048
3,132,-4112,11510,-7658,5752,24903,-30694
4,198,-4378,11585,-7489,5141,25328,-30469
5,264,-4643,11723,-7430,4379,25696,-30223
6,330,-4945,11827,-7226,3665,26070,-29943
7,396,-5179,11942,-7103,3031,26594,-29663
8,462,-5435,12110,-6917,2359,26925,-29406
9,528,-5778,12191,-6779,1698,27349,-29125
10,594,-5987,12321,-6674,1023,27659,-28750
11,660,-6344,12374,-6439,382,28048,-28536
12,726,-6554,12489,-6262,-262,28217,-28077
13,792,-6776,12561,-6081,-910,28399,-27790
14,858,-7089,12661,-5896,-1534,28903,-27351
15,924,-7352,12775,-5619,-2209,29102,-27083
16,990,-7614,12765,-5522,-2815,29411,-26519
17,1056,-7865,12777,-5291,-3417,29738,-26264
18,1122,-8192,12853,-5082,-4146,29922,-25858
19,1188,-8429,12900,-4926,-4934,30252,-25465
20,1254,-8754,12975,-4624,-5532,30452,-25024
21,1320,-8974,13045,-4364,-6306,30696,-24631
22,1386,-9192,12998,-4156,-6946,31038,-24095
23,1452,-9536,13067,-3880,-7529,31230,-23665
24,1518,-9675,13158,-3653,-8316,31451,-23195
25,1584,-10062,13155,-3391,-8892,31638,-22653
26,1650,-10320,13130,-3124,-9619,31654,-22156
27,1716,-10545,13108,-2888,-10188,31720,-21705
28,1782,-10858,13038,-2638,-10955,31817,-21159
29,1848,-11160,13106,-2335,-11555,31920,-20736
30,1914,-11407,13109,-2121,-12239,31993,-20162
31,1980,-11709,13073,-1779,-12810,32161,-19599
32,2046,-11894,13041,-1491,-13359,32154,-19013
33,2112,-12092,12977,-1185,-14032,32037,-18534
34,2178,-12341,12976,-911,-14481,32266,-17846
35,2244,-12644,12892,-580,-15043,32152,-17263
36,2310,-12906,12829,-278,-15636,32241,-16646
37,2376,-13145,12662,19,-16134,32371,-16001
38,2442,-13370,12674,345,-16776,32240,-15498
39,2508,-13565,12585,542,-17381,32444,-14757
40,2574,-13814,12517,977,-17910,32276,-14215
41,2640,-13945,12412,1388,-18477,32202,-13580
42,2706,-14208,12253,1586,-18890,32135,-12972
43,2772,-14429,12091,2024,-19521,32123,-12307
44,2838,-14693,12018,2242,-20015,32002,-11759
45,2904,-14871,11915,2608,-20720,31809,-11189
46,2970,-15090,11760,2922,-21232,31769,-10625
47,3036,-15249,11640,3291,-21638,31639,-9989
48,3102,-15380,11606,3653,-22303,31448,-9320
49,3168,-15630,11252,4090,-22694,31410,-8654
50,3234,-15789,11085,4362,-23173,30927,-7915
51,3300,-15956,10852,4748,-23631,30794,-7469
52,3366,-16122,10754,5019,-24190,30537,-6628
53,3432,-16332,10541,5417,-24623,30400,-5997
54,3498,-16448,10409,5887,-25000,30089,-5361
55,3564,-16569,10263,6131,-25449,29807,-4726
56,3630,-16887,10085,6509,-25915,29642,-4049
57,3696,-16959,9751,6904,-26361,29525,-3327
58,3762,-17112,9540,7219,-26652,29059,-2736
59,3828,-17122,9345,7500,-27029,28922,-1929
60,3894,-17291,9036,7949,-27406,28693,-1222
61,3960,-17390,8752,8244,-27772,28400,-591
62,4026,-17513,8543,8648,-28085,27988,-80
63,4092,-17492,8191,8865,-28382,27658,826
64,4158,-17683,7934,9310,-28565,27230,1485
65,4224,-17672,7673,9776,-28847,26873,2306
66,4290,-17776,7340,10043,-29102,26498,2880
67,4356,-17842,7126,10435,-29456,26038,3746
68,4422,-17970,6755,10801,-29645,25674,4250
69,4488,-17986,6519,11179,-30137,25089,4965
70,4554,-18059,6205,11489,-30190,24842,5627
71,4620,-18045,5878,11842,-30381,24366,6177
72,4686,-18048,5666,12196,-30621,24031,6751
73,4752,-18099,5234,12560,-30870,23436,7720
74,4818,-18054,4766,12901,-31070,23110,8229
75,4884,-18125,4499,13248,-31242,22524,8721
76,4950,-18056,4208,13447,-31554,22005,9456
77,5016,-18086,3786,13914,-31649,21486,10013
78,5082,-18016,3457,14311,-31730,20991,10683
79,5148,-17886,3064,14556,-31718,20261,11287
80,5214,-17849,2717,14885,-31759,19937,11899
81,5280,-17794,2350,15181,-31942,19281,12526
82,5346,-17775,1943,15537,-32156,18744,13101
83,5412,-17702,1524,15815,-32187,18148,13721
84,5478,-17605,1149,16163,-32207,17435,14351
85,5544,-17446,642,16411,-32252,17055,14936
86,5610,-17418,340,16706,-32162,16478,15466
87,5676,-17295,-11,16990,-32202,15948,16092
88,5742,-17158,-475,17328,-32065,15352,16824
89,5808,-16999,-882,17624,-32053,14695,17335
90,5874,-16859,-1318,17865,-32020,14221,17949
91,5940,-16722,-1742,18165,-31825,13627,18570
92,6006,-16538,-2109,18453,-31964,13099,19034
93,6072,-16399,-2604,18733,-31890,12562,19655
94,6138,-16246,-2982,18952,-31783,11784,20292
95,6204,-15950,-3542,19091,-31677,11107,20741
96,6270,-15835,-3953,19388,-31507,10415,21245
97,6336,-15523,-4351,19593,-31470,9839,21620
98,6402,-15395,-4790,19814,-31355,9256,22263
99,6468,-15180,-5229,20076,-31317,8579,22688
100,6534,-14960,-5660,20322,-31019,7938,23167
101,6600,-14671,-6096,20484,-30859,7243,23735
102,6666,-14402,-6541,20787,-30623,6538,24067
103,6732,-14093,-7003,20778,-30474,5912,24548
104,6798,-13795,-7415,21005,-30196,5242,25021
105,6864,-13584,-7882,21207,-29855,4539,25455
106,6930,-13271,-8342,21355,-29745,3771,25949
107,6996,-13023,-8841,21519,-29313,3176,26233
108,7062,-12690,-9261,21620,-29025,2467,26622
109,7128,-12361,-9673,21764,-28775,1823,26975
110,7194,-12016,-10201,21839,-28424,1231,27333
111,7260,-11658,-10490,22017,-28119,597,27556
112,7326,-11393,-11008,22077,-27836,-92,28008
113,7392,-10997,-11461,22208,-27578,-689,28281
114,7458,-10658,-11900,22280,-27188,-1362,28577
115,7524,-10292,-12334,22375,-26905,-2014,28991
116,7590,-9911,-12809,22405,-26486,-2812,29283
117,7656,-9452,-13202,22446,-26021,-3401,29461
118,7722,-9059,-13654,22438,-25573,-4097,29725
119,7788,-8722,-14118,22477,-25169,-4733,29989
120,7854,-8331,-14544,22530,-24661,-5417,30272
121,7920,-7899,-14969,22562,-24311,-6165,30497
122,7986,-7543,-15437,22552,-23839,-6810,30743
123,8052,-7067,-15800,22532,-23365,-7526,30936
124,8118,-6596,-16208,22556,-22939,-8186,31150
125,8184,-6169,-16616,22448,-22459,-8770,31321
126,8250,-5689,-16991,22442,-21988,-9415,31465
127,8316,-5278,-17358,22343,-21526,-10090,31623
128,8382,-4793,-17779,22282,-21146,-10742,31794
129,8448,-4350,-18193,22257,-20623,-11379,31943
130,8514,-3844,-18612,22145,-20023,-11966,32139
131,8580,-3382,-18927,22070,-19596,-12615,32158
132,8646,-2950,-19336,21944,-18937,-13110,32256
133,8712,-2424,-19668,21775,-18374,-13746,32289
134,8778,-1983,-20038,21668,-17846,-14388,32271
135,8844,-1463,-20422,21546,-17286,-14973,32340
136,8910,-988,-20744,21394,-16728,-15597,32299
137,8976,-477,-21093,21242,-16175,-16162,32404
138,9042,38,-21413,21075,-15608,-16786,32378
139,9108,517,-21710,20876,-14958,-17376,32290
140,9174,1071,-22031,20653,-14399,-17939,32317
141,9240,1599,-22331,20439,-13813,-18491,32305
142,9306,2093,-22611,20167,-13193,-19003,32242
143,9372,2619,-22899,19983,-12567,-19622,32179
144,9438,3168,-23174,19719,-11964,-20119,32144
145,9504,3621,-23523,19514,-11342,-20602,32013
146,9570,4218,-23742,19253,-10714,-21177,31945
147,9636,4733,-24006,18986,-10051,-21655,31794
148,9702,5288,-24210,18676,-9424,-22057,31611
149,9768,5795,-24437,18351,-8780,-22575,31391
150,9834,6347,-24672,18013,-8072,-23035,31257
151,9900,6910,-24922,17752,-7516,-23528,31030
152,9966,7413,-25131,17446,-6905,-24038,30819
153,10032,7903,-25348,17090,-6186,-24384,30632
154,10098,8469,-25481,16784,-5449,-24809,30431
155,10164,9032,-25705,16369,-4770,-25300,30113
156,10230,9588,-25801,15981,-4051,-25682,29922
157,10296,10057,-25964,15597,-3399,-26137,29630
158,10362,10617,-26092,15214,-2688,-26571,29377
159,10428,11127,-26279,14857,-2042,-27000,29070
160,10494,11631,-26389,14455,-1406,-27384,28748
161,10560,12208,-26480,14009,-726,-27766,28491
162,10626,12672,-26581,13545,-7,-27997,28154
163,10692,13204,-26652,13152,611,-28257,27787
164,10758,13716,-26665,12669,1224,-28664,27499
165,10824,14189,-26773,12208,1887,-28963,27142
166,10890,14709,-26876,11741,2530,-29258,26822
167,10956,15205,-26918,11314,3119,-29668,26434
168,11022,15633,-26972,10843,3818,-29848,25996
169,11088,16229,-26961,10443,4458,-30165,25566
170,11154,16668,-26907,9862,5149,-30442,25145
171,11220,17168,-26898,9351,5800,-30607,24780
172,11286,17651,-26830,8878,6471,-30986,24360
173,11352,18155,-26822,8304,7272,-31156,23918
174,11418,18607,-26794,7924,7935,-31394,23479
175,11484,19083,-26763,7288,8586,-31602,23056
176,11550,19510,-26702,6771,9273,-31790,22550
177,11616,19917,-26582,6231,9865,-31912,22013
178,11682,20387,-26474,5659,10530,-31986,21483
179,11748,20781,-26347,5141,11150,-32023,20974
180,11814,21255,-26218,4551,11854,-32200,20397
181,11880,21722,-26066,4020,12524,-32195,19905
182,11946,22113,-25939,3435,13113,-32231,19536
183,12012,22545,-25750,2906,13759,-32382,18851
184,12078,22942,-25603,2300,14317,-32471,18396
185,12144,23324,-25394,1748,14828,-32437,17715
186,12210,23731,-25247,1219,15467,-32441,17113
187,12276,24045,-24928,498,15929,-32494,16595
188,12342,24350,-24851,-14,16591,-32578,15909
189,12408,24777,-24517,-650,17020,-32735,15339
190,12474,25159,-24360,-1199,17701,-32616,14639
191,12540,25470,-24047,-1756,18349,-32614,14063
192,12606,25856,-23688,-2415,18722,-32593,13484
193,12672,25983,-23408,-2988,19367,-32364,12943
194,12738,26354,-23144,-3593,19836,-32289,12228
195,12804,26481,-22795,-4213,20428,-32331,11525
196,12870,26940,-22555,-4881,20843,-32209,10984
197,12936,27187,-22181,-5433,21529,-32150,10279
198,13002,27486,-21852,-6018,22012,-32021,9791
199,13068,27764,-21482,-6652,22611,-31752,9186
200,13134,27922,-21074,-7224,23259,-31588,8549
201,13200,28159,-20676,-7871,23649,-31334,7895
202,13266,28353,-20274,-8418,23940,-31148,7224
203,13332,28514,-19889,-9138,24599,-30930,6596
204,13398,28737,-19472,-9661,24939,-30750,5852
205,13464,29036,-18954,-10269,25417,-30498,5327
206,13530,29165,-18643,-10817,25937,-30240,4787
207,13596,29291,-18085,-11343,26256,-30004,3958
208,13662,29380,-17809,-11913,26667,-29729,3338
209,13728,29512,-17249,-12650,27023,-29533,2682
210,13794,29547,-16857,-13137,27459,-29219,1842
211,13860,29700,-16336,-13689,27749,-29018,1217
212,13926,29877,-15872,-14348,28170,-28695,520
213,13992,29889,-15390,-14867,28625,-28317,-201
214,14058,29936,-14797,-15479,28875,-28088,-903
215,14124,29889,-14211,-16059,29149,-27869,-1651
216,14190,29941,-13869,-16577,29348,-27282,-2315
217,14256,29963,-13187,-17150,29666,-26893,-3105
218,14322,29979,-12652,-17722,29885,-26498,-3632
219,14388,29978,-12137,-18250,30137,-26120,-4362
220,14454,29987,-11605,-18846,30440,-25669,-5007
221,14520,29997,-11055,-19329,30781,-25370,-5734
222,14586,29976,-10495,-19928,30810,-24851,-6363
223,14652,29744,-9898,-20286,31076,-24435,-7046
224,14718,29750,-9281,-20844,31280,-24040,-7528
225,14784,29688,-8759,-21282,31505,-23517,-8373
226,14850,29483,-8104,-21843,31670,-22885,-8887
227,14916,29442,-7452,-22316,31929,-22527,-9588
228,14982,29284,-6889,-22781,32040,-22071,-10153
229,15048,29181,-6276,-23303,32303,-21477,-10736
230,15114,29004,-5670,-23725,32386,-20988,-11528
231,15180,28777,-5052,-24277,32416,-20272,-12183
232,15246,28518,-4344,-24550,32523,-19818,-12696
233,15312,28358,-3772,-24993,32532,-19208,-13230
234,15378,28160,-3156,-25431,32727,-18710,-13855
235,15444,27973,-2516,-25840,32921,-18104,-14469
236,15510,27804,-1842,-26286,32855,-17604,-15083
237,15576,27441,-1096,-26664,32854,-16993,-15620
238,15642,27150,-589,-26996,32680,-16365,-16289
239,15708,26789,99,-27360,32712,-15981,-16845
240,15774,26528,662,-27698,32620,-15288,-17493
241,15840,26306,1360,-28046,32556,-14858,-18216
242,15906,26023,1999,-28397,32534,-14254,-18713
243,15972,25654,2669,-28730,32501,-13644,-19259
244,16038,25275,3362,-28979,32460,-13085,-19856
245,16104,24988,3982,-29324,32346,-12408,-20390
246,16170,24540,4652,-29514,32352,-11720,-20909
247,16236,24172,5310,-29907,32234,-11104,-21399
248,16302,23750,5964,-30091,32117,-10411,-22046
249,16368,23332,6685,-30323,32027,-9846,-22408
250,16434,22970,7256,-30593,31844,-9215,-22922
251,16500,22456,7885,-30835,31816,-8548,-23434
252,16566,22133,8560,-31056,31611,-7883,-23971
253,16632,21700,9212,-31260,31406,-7205,-24340
254,16698,21128,9901,-31381,31136,-6431,-24703
255,16764,20670,10547,-31505,30808,-5779,-25193
256,16830,20223,11152,-31703,30619,-5071,-25489
257,16896,19726,11747,-31830,30435,-4379,-26071
258,16962,19255,12300,-31997,30084,-3770,-26508
259,17028,18724,12984,-32172,29828,-3047,-26920
260,17094,18215,13580,-32210,29503,-2410,-27254
261,17160,17700,14193,-32232,29180,-1805,-27624
262,17226,17172,14785,-32358,28886,-1089,-27900
263,17292,16579,15405,-32326,28603,-393,-28308
264,17358,15997,16033,-32330,28303,138,-28585
265,17424,15449,16604,-32432,27976,729,-28922
266,17490,14873,17189,-32450,27673,1470,-29275
267,17556,14299,17761,-32488,27301,2156,-29590
268,17622,13696,18381,-32441,26789,2773,-29806
269,17688,13049,18874,-32387,26441,3504,-30059
270,17754,12451,19430,-32248,26004,4230,-30324
271,17820,11747,19937,-32247,25534,4842,-30615
272,17886,11226,20497,-32115,25010,5561,-30813
273,17952,10561,21075,-32090,24681,6257,-31139
274,18018,9983,21554,-32006,24168,6884,-31337
275,18084,9367,22103,-31898,23806,7449,-31570
276,18150,8706,22619,-31726,23293,8207,-31699
277,18216,8043,23082,-31532,22807,8883,-31877
278,18282,7409,23520,-31366,22316,9539,-31991
279,18348,6726,24040,-31205,21955,10165,-32203
280,18414,6096,24492,-31038,21409,10771,-32390
281,18480,5484,24961,-30836,20915,11363,-32555
282,18546,4789,25432,-30611,20390,12048,-32629
283,18612,4119,25856,-30367,19868,12616,-32690
284,18678,3420,26254,-30081,19295,13253,-32732
285,18744,2788,26659,-29801,18740,13799,-32747
286,18810,2022,27055,-29521,18192,14404,-32859
287,18876,1424,27461,-29252,17681,14946,-32840
288,18942,791,27832,-28961,17015,15618,-32824
289,19008,75,28181,-28683,16513,16257,-32772
290,19074,-621,28622,-28313,15824,16766,-32899
291,19140,-1329,28868,-27973,15335,17363,-32817
292,19206,-1983,29185,-27610,14683,17882,-32795
293,19272,-2698,29470,-27191,14115,18482,-32778
294,19338,-3337,29803,-26844,13461,19024,-32729
295,19404,-4006,30118,-26442,12882,19549,-32670
296,19470,-4709,30401,-26044,12284,20129,-32571
297,19536,-5338,30663,-25632,11666,20584,-32449
298,19602,-6081,30899,-25184,11025,21142,-32361
299,19668,-6721,31092,-24748,10361,21579,-32108
300,19734,-7342,31305,-24267,9699,22021,-31951
301,19800,-8030,31487,-23834,9104,22577,-31831
302,19866,-8724,31715,-23336,8423,23118,-31613
303,19932,-9393,31901,-22876,7836,23524,-31468
304,19998,-10043,32099,-22399,7176,24004,-31227
305,20064,-10722,32226,-21877,6486,24377,-30982
306,20130,-11295,32344,-21329,5770,24837,-30694
307,20196,-11941,32472,-20796,5060,25291,-30463
308,20262,-12614,32521,-20279,4366,25684,-30242
309,20328,-13207,32633,-19745,3720,26116,-29889
310,20394,-13849,32730,-19156,3025,26516,-29710
311,20460,-14484,32772,-18635,2297,27034,-29413
312,20526,-15119,32829,-18090,1695,27367,-29098
313,20592,-15737,32863,-17514,1016,27665,-28800
314,20658,-16296,32769,-16918,392,27956,-28433
315,20724,-16847,32819,-16302,-210,28247,-28106
316,20790,-17453,32754,-15723,-867,28556,-27786
317,20856,-18033,32771,-15080,-1576,28846,-27404
318,20922,-18663,32754,-14462,-2122,29155,-27206
319,20988,-19203,32737,-13876,-2872,29392,-26672
320,21054,-19749,32642,-13252,-3483,29653,-26291
321,21120,-20311,32546,-12645,-4211,29960,-25826
322,21186,-20796,32408,-11965,-4863,30259,-25431
323,21252,-21305,32255,-11253,-5568,30465,-25008
324,21318,-21843,32150,-10674,-6222,30777,-24494
325,21384,-22330,32000,-9939,-6939,31003,-24063
326,21450,-22875,31885,-9332,-7605,31199,-23630
327,21516,-23328,31733,-8649,-8248,31426,-23221
328,21582,-23835,31563,-8050,-8856,31512,-22761
329,21648,-24299,31339,-7411,-9628,31717,-22273
330,21714,-24692,31033,-6676,-10211,31750,-21657
331,21780,-25166,30821,-6006,-10918,31660,-21178
332,21846,-25518,30582,-5361,-11578,31914,-20640
333,21912,-26002,30335,-4648,-12091,31856,-20173
334,21978,-26394,30119,-4005,-12803,32058,-19561
335,22044,-26838,29818,-3342,-13360,32140,-19000
336,22110,-27216,29555,-2609,-13985,32111,-18470
337,22176,-27532,29205,-1981,-14527,32238,-17784
338,22242,-27887,28783,-1262,-15029,32250,-17303
339,22308,-28208,28513,-531,-15654,32282,-16724
340,22374,-28572,28130,57,-16266,32377,-16019
341,22440,-28932,27779,805,-16739,32308,-15354
342,22506,-29154,27389,1536,-17301,32336,-14799
343,22572,-29458,27067,2149,-17898,32141,-14240
344,22638,-29713,26665,2813,-18347,32311,-13588
345,22704,-30003,26245,3482,-18908,32085,-13022
346,22770,-30228,25809,4171,-19613,31943,-12437
347,22836,-30491,25243,4804,-20103,32001,-11777
348,22902,-30752,24943,5464,-20699,31721,-11321
349,22968,-30950,24485,6173,-21285,31850,-10628
350,23034,-31149,24053,6952,-21783,31580,-9920
351,23100,-31307,23554,7560,-22207,31432,-9284
352,23166,-31444,23048,8233,-22708,31199,-8695
353,23232,-31588,22579,8732,-23248,30961,-7915
354,23298,-31798,21988,9425,-23610,30771,-7333
355,23364,-31858,21555,10125,-24196,30557,-6682
356,23430,-31896,21059,10695,-24568,30394,-6049
357,23496,-32106,20658,11323,-25050,30253,-5385
358,23562,-32261,19985,11982,-25436,29939,-4914
359,23628,-32276,19522,12527,-25806,29579,-4106
360,23694,-32291,18801,13101,-26298,29525,-3353
361,23760,-32341,18213,13754,-26613,29117,-2671
362,23826,-32325,17762,14369,-26934,28870,-1941
363,23892,-32324,17121,14922,-27392,28525,-1265
364,23958,-32270,16487,15453,-27768,28349,-543
365,24024,-32391,15971,16115,-28019,27790,55
366,24090,-32234,15401,16631,-28437,27585,742
367,24156,-32147,14760,17122,-28564,27207,1467
368,24222,-32148,14168,17674,-28898,27104,2158
369,24288,-32008,13505,18275,-29135,26573,2910
370,24354,-31970,12928,18754,-29516,26082,3645
371,24420,-32016,12225,19267,-29743,25747,4254
372,24486,-31813,11683,19874,-30119,25321,4867
373,24552,-31689,11131,20351,-30186,24839,5548
374,24618,-31559,10359,20838,-30392,24393,6311
375,24684,-31303,9777,21355,-30478,23918,6903
376,24750,-31161,9147,21709,-30812,23465,7493
377,24816,-30928,8473,22072,-31057,23070,8202
378,24882,-30868,7833,22617,-31250,22433,8701
379,24948,-30554,7244,22887,-31478,21864,9488
380,25014,-30311,6543,23456,-31606,21498,10058
381,25080,-30125,5934,23848,-31725,21003,10676
382,25146,-29828,5379,24280,-31852,20445,11210
383,25212,-29517,4606,24625,-31895,19875,12036
384,25278,-29231,3875,25023,-31928,19336,12508
385,25344,-28903,3270,25361,-32049,18707,13179
386,25410,-28596,2504,25675,-32108,18199,13728
387,25476,-28362,1970,26085,-32134,17426,14361
388,25542,-27970,1349,26356,-32306,17057,14929
389,25608,-27721,664,26666,-32120,16448,15533
390,25674,-27304,75,26949,-32170,15827,16069
391,25740,-26827,-677,27200,-32154,15383,16724
392,25806,-26543,-1276,27506,-32094,14809,17403
393,25872,-26022,-1869,27794,-32069,14248,17915
394,25938,-25821,-2599,27983,-32010,13854,18598
395,26004,-25348,-3225,28345,-31940,13091,19096
396,26070,-24987,-3847,28525,-31817,12474,19628
397,26136,-24525,-4557,28664,-31764,11815,20208
398,26202,-24082,-5096,28826,-31728,11131,20485
399,26268,-23601,-5649,28943,-31640,10515,21177
400,26334,-23161,-6273,29191,-31521,9890,21753
401,26400,-22668,-6956,29487,-31427,9287,22211
402,26466,-22197,-7552,29523,-31356,8646,22877
403,26532,-21725,-8230,29678,-31042,8023,23216
404,26598,-21195,-8716,29718,-30840,7223,23665
405,26664,-20747,-9339,29833,-30608,6728,24084
406,26730,-20294,-9891,29875,-30374,5885,24492
407,26796,-19730,-10475,29929,-30111,5134,24885
408,26862,-19199,-11068,29996,-29819,4519,25377
409,26928,-18678,-11648,30053,-29582,3900,25729
410,26994,-18252,-12170,30077,-29345,3177,26220
411,27060,-17666,-12786,30176,-29107,2523,26645
412,27126,-17102,-13283,30113,-28772,1824,27048
413,27192,-16533,-13840,30042,-28440,1217,27248
414,27258,-15950,-14350,29992,-28051,474,27538
415,27324,-15332,-14824,29967,-27826,-57,27965
416,27390,-14840,-15381,29879,-27553,-726,28346
417,27456,-14297,-15956,29851,-27211,-1346,28589
