DeliveryTest,CMU,1999
78,78A,0D
1,Terminal_Voltage,,, V,0.001433392769,0.0,0.0,-32767,32767,1,1,P
2,U RMS Sig (a) a,,, V,0.000837795334,0.0,0.0,-32767,32767,1,1,P
3,U RMS Sig (b) b,,, V,0.000810173996,0.0,0.0,-32767,32767,1,1,P
4,U RMS Sig (c) c,,, V,0.000835425373,0.0,0.0,-32767,32767,1,1,P
5,I RMS Sig (a) a,,, A,0.000001000000,0.0,0.0,-710,710,1,1,P
6,I RMS Sig (b) b,,, A,0.000001000000,0.0,0.0,-363,363,1,1,P
7,I RMS Sig (c) c,,, A,0.000001000000,0.0,0.0,-369,369,1,1,P
8,U RMS Sig (ab) ab,,, V,0.001446143430,0.0,0.0,-32767,32767,1,1,P
9,U RMS Sig (bc) bc,,, V,0.001417182110,0.0,0.0,-32767,32767,1,1,P
10,U RMS Sig (ca) ca,,, V,0.001465745094,0.0,0.0,-32767,32767,1,1,P
11,SGLP Sig (a) Apparent a,,, VA,0.000592038939,0.0,0.0,-32767,32767,1,1,P
12,SGLP Sig (a) Active a,,, W,0.000518965409,0.0,0.0,-32767,32767,1,1,P
13,SGLP Sig (a) Reactive a,,, var,0.000304019116,0.0,0.0,-32767,32767,1,1,P
14,SGLP Sig (a) Cos Phi a,,, ,0.000002226131,0.0,0.0,-32767,32767,1,1,P
15,SGLP Sig (b) Apparent b,,, VA,0.000572491373,0.0,0.0,-32767,32767,1,1,P
16,SGLP Sig (b) Active b,,, W,0.000507879065,0.0,0.0,-32767,32767,1,1,P
17,SGLP Sig (b) Reactive b,,, var,0.000282934184,0.0,0.0,-32767,32767,1,1,P
18,SGLP Sig (b) Cos Phi b,,, ,0.000002769060,0.0,0.0,-32767,32767,1,1,P
19,SGLP Sig (c) Apparent c,,, VA,0.000593289030,0.0,0.0,-32767,32767,1,1,P
20,SGLP Sig (c) Active c,,, W,0.000508675821,0.0,0.0,-32767,32767,1,1,P
21,SGLP Sig (c) Reactive c,,, var,0.000306436459,0.0,0.0,-32767,32767,1,1,P
22,SGLP Sig (c) Cos Phi c,,, ,0.000001000000,0.0,0.0,-22833,22833,1,1,P
23,SUMP Sig Apparent,,, VA,0.001757644525,0.0,0.0,-32767,32767,1,1,P
24,SUMP Sig Active,,, W,0.001524646249,0.0,0.0,-32767,32767,1,1,P
25,SUMP Sig Reactive,,, var,0.000874788363,0.0,0.0,-32767,32767,1,1,P
26,SUMP Sig Cos Phi,,, ,0.000001000000,0.0,0.0,-6994,6994,1,1,P
27,U POSSEQ Sig Mag,,, V,0.000827841390,0.0,0.0,-32767,32767,1,1,P
28,U POSSEQ Sig Phase,,, rad,0.000048398977,0.0,0.0,-32767,32767,1,1,P
29,I POSSEQ Sig Mag,,, A,0.000001000000,0.0,0.0,-314,314,1,1,P
30,I POSSEQ Sig Phase,,, rad,0.000047996488,0.0,0.0,-32767,32767,1,1,P
31,U NEGSEQ Sig Mag,,, V,0.000057980546,0.0,0.0,-32767,32767,1,1,P
32,U NEGSEQ Sig Phase,,, rad,0.000092226712,0.0,0.0,-32767,32767,1,1,P
33,I NEGSEQ Sig Mag,,, A,0.000001000000,0.0,0.0,-256,256,1,1,P
34,I NEGSEQ Sig Phase,,, rad,0.000052262408,0.0,0.0,-32767,32767,1,1,P
35,U ZEROSEQ Sig Mag,,, V,0.000001157244,0.0,0.0,-32767,32767,1,1,P
36,U ZEROSEQ Sig Phase,,, rad,0.000090927008,0.0,0.0,-32767,32767,1,1,P
37,I ZEROSEQ Sig Mag,,, A,0.000001000000,0.0,0.0,-230,230,1,1,P
38,I ZEROSEQ Sig Phase,,, rad,0.000054430568,0.0,0.0,-32767,32767,1,1,P
39,U NEGSEQRATIO Sig,,, %,0.000282704587,0.0,0.0,-32767,32767,1,1,P
40,I NEGSEQRATIO Sig,,, %,0.000001104957,0.0,0.0,-32767,32767,1,1,P
41,U ZEROSEQRATIO Sig,,, %,0.000002699577,0.0,0.0,-32767,32767,1,1,P
42,I ZEROSEQRATIO Sig,,, %,0.000001000000,0.0,0.0,-32528,32528,1,1,P
43,U PH Sig (a) a,,, rad,0.000052197770,0.0,0.0,-32767,32767,1,1,P
44,U PH Sig (b) b,,, rad,0.000095348699,0.0,0.0,-32767,32767,1,1,P
45,U PH Sig (c) c,,, rad,0.000049335985,0.0,0.0,-32767,32767,1,1,P
46,I PH Sig (a) a,,, rad,0.000048008377,0.0,0.0,-32767,32767,1,1,P
47,I PH Sig (b) b,,, rad,0.000048001643,0.0,0.0,-32767,32767,1,1,P
48,I PH Sig (c) c,,, rad,0.000047994291,0.0,0.0,-32767,32767,1,1,P
49,U FRQ Sig (a) a,,, Hz,0.000001000000,0.0,0.0,-24733,24733,1,1,P
50,U FRQ Sig (b) b,,, Hz,0.000001000000,0.0,0.0,-24540,24540,1,1,P
51,U FRQ Sig (c) c,,, Hz,0.000001000000,0.0,0.0,-24303,24303,1,1,P
52,I FRQ Sig (a) a,,, Hz,0.000001000000,0.0,0.0,-889,889,1,1,P
53,I FRQ Sig (b) b,,, Hz,0.000001000000,0.0,0.0,-1017,1017,1,1,P
54,I FRQ Sig (c) c,,, Hz,0.000001000000,0.0,0.0,-1089,1089,1,1,P
55,U TRMS PQ1 Sig (a) a,,, V,0.000833082771,0.0,0.0,-32767,32767,1,1,P
56,U TRMS PQ1 Sig (b) b,,, V,0.000832747994,0.0,0.0,-32767,32767,1,1,P
57,U TRMS PQ1 Sig (c) c,,, V,0.000829964069,0.0,0.0,-32767,32767,1,1,P
58,I TRMS PQ3 Sig (a) a,,, A,0.000001000000,0.0,0.0,-3239,3239,1,1,P
59,I TRMS PQ3 Sig (b) b,,, A,0.000001000000,0.0,0.0,-3205,3205,1,1,P
60,I TRMS PQ3 Sig (c) c,,, A,0.000001000000,0.0,0.0,-3217,3217,1,1,P
61,SGLPC Sig (a) Sc a,,, VA,0.000001000000,0.0,0.0,-21464,21464,1,1,P
62,SGLPC Sig (a) Pc a,,, W,0.000001000000,0.0,0.0,-14395,14395,1,1,P
63,SGLPC Sig (a) Nc a,,, var,0.000001000000,0.0,0.0,-26682,26682,1,1,P
64,SGLPC Sig (a) PFc a,,, ,0.000001000000,0.0,0.0,-459,459,1,1,P
65,SGLPC Sig (b) Sc b,,, VA,0.000008402561,0.0,0.0,-32767,32767,1,1,P
66,SGLPC Sig (b) Pc b,,, W,0.000006425303,0.0,0.0,-32767,32767,1,1,P
67,SGLPC Sig (b) Nc b,,, var,0.000006125787,0.0,0.0,-32767,32767,1,1,P
68,SGLPC Sig (b) PFc b,,, ,0.000001000000,0.0,0.0,-1677,1677,1,1,P
69,SGLPC Sig (c) Sc c,,, VA,0.000007725469,0.0,0.0,-32767,32767,1,1,P
70,SGLPC Sig (c) Pc c,,, W,0.000010519493,0.0,0.0,-32767,32767,1,1,P
71,SGLPC Sig (c) Nc c,,, var,0.000002622714,0.0,0.0,-32767,32767,1,1,P
72,SGLPC Sig (c) PFc c,,, ,0.000001000000,0.0,0.0,-5410,5410,1,1,P
73,SUMPC Sig Sc,,, VA,0.000016303416,0.0,0.0,-32767,32767,1,1,P
74,SUMPC Sig Pc,,, W,0.000016530665,0.0,0.0,-32767,32767,1,1,P
75,SUMPC Sig Nc,,, var,0.000008635021,0.0,0.0,-32767,32767,1,1,P
76,SUMPC Sig PFc,,, ,0.000001000000,0.0,0.0,-2051,2051,1,1,P
77,QCorr,,, VAr,0.000844564291,0.0,0.0,-32767,32767,1,1,P
78,PCorr,,, W,0.001541595818,0.0,0.0,-32767,32767,1,1,P
 50.000000
0
0.00,2401
23/08/2022,16:36:22.000000
23/08/2022,16:36:32.000000
ASCII
1
1,0,10840,9320,11374,11838,707283,706423,709730,9607,12320,10418,9328,9467,8297,399616,11370,10152,14045,286028,11830,12409,10019,899275,10793,10744,10936,863527,10786,39355,707808,28667,21058,-9483,2530,-17327,13499,9177,1122,25208,48368,323387,64805,158587,35395,-598,-47878,28603,-14868,-58649,49522530,49522816,49522767,49999527,49999856,50000038,10112,10019,12442,708803,709457,706365,29571014,21640888,20152340,731827,3503525,3367582,3258508,735012,3827036,2062639,7657349,733889,5432895,3930667,6971125,733579,10942,10746
2,9999,30691,27307,30011,34720,706927,706501,709684,25710,34165,31569,27317,28628,21016,412666,30006,26307,38159,280887,34696,35374,32628,874120,30504,30310,31076,861925,30488,-25486,707701,-36779,66673,29855,2503,41403,26855,-25145,993,-31184,54180,319987,45613,140218,-26084,32593,16907,-36820,50583,6812,49537732,49537816,49538197,49999569,49999977,50000099,30711,23100,27904,708803,709457,706365,29572408,21641948,20153250,731828,3534069,3397171,3286658,735062,3853235,2089908,7652395,738535,5461190,3959585,6989934,735147,31102,30318
3,19999,60168,57285,59548,63612,706750,706440,709783,55399,63155,60777,57293,58405,50081,401410,59532,55910,66615,300885,63577,64175,61672,865436,60079,59915,60554,865076,60070,39297,707655,28679,59964,-2538,2540,-18897,51673,10391,917,28331,24731,324811,44545,129470,35245,-1336,-46408,28624,-14861,-58640,49558105,49557972,49558582,49999665,50000027,50000095,58828,51586,55547,708803,709457,706365,29588059,21644550,20173417,731530,3558673,3410194,3321581,732779,3882422,2108204,7699515,739400,5488768,3976447,7031730,734568,60576,59922
4,29999,75392,74769,76516,74865,706651,706392,709821,74457,76001,74240,74768,74207,71790,390809,76490,74951,76506,313926,74829,75360,73077,863465,75356,75369,75293,867584,75366,-25711,707619,-36771,7483,-25117,2620,40640,64308,-24594,975,-28595,2460,335109,44185,137753,-23976,30892,17347,-36808,50593,6816,49563419,49563316,49563858,49999810,50000015,50000026,75216,72796,73464,708803,709457,706365,29576093,21646259,20154026,731883,3544084,3403189,3300069,734283,3864297,2097088,7669182,738950,5471852,3966753,7004749,735043,75289,75368
5,39999,63740,65386,66748,59119,706638,706309,709799,67022,62063,60883,65384,62997,68177,379388,66717,67522,59443,324237,59088,59584,57488,864571,63633,63815,63058,869913,63661,39100,707579,28680,56610,30496,2677,-19065,49579,9917,996,28199,22031,342491,40329,140693,37150,-2696,-46376,28623,-14854,-58643,49547435,49547477,49548019,50000007,49999981,49999927,67703,72101,69524,708803,709457,706365,29572438,21645259,20149736,731939,3508930,3374472,3261608,735381,3833288,2071347,7646660,735785,5438734,3939151,6969803,734373,63030,63806
6,50000,34690,36847,38024,29265,706924,706428,709818,39130,32664,31664,36860,34061,42092,363864,38013,39631,29245,334009,29250,29713,27828,870939,34497,34709,33836,872751,34515,-25930,707720,-36777,70680,-2352,2639,41857,23499,-24417,1020,-31587,50733,337541,35256,144199,-21862,29559,17042,-36822,50590,6815,49527825,49527913,49528573,50000209,49999962,49999814,41731,49933,46395,708803,709457,706365,29562122,21645465,20134373,732202,3497954,3353531,3263188,733112,3819926,2047416,7692191,729829,5426103,3915795,6982931,731719,33805,34699
7,59999,12246,12541,14109,10132,707140,706337,709846,14002,12107,10430,12550,11195,15234,351248,14103,14589,11338,331403,10127,10672,8406,903441,12152,12231,11907,873042,12158,38964,707770,28670,29547,-32578,2649,-16993,7209,8485,1061,25146,60209,338817,30705,149942,39202,-3197,-48068,28603,-14863,-58644,49519806,49519944,49520585,50000366,49999996,49999711,15853,21692,20187,708803,709457,706365,29568575,21641212,20148415,731898,3497387,3353610,3261953,733248,3821024,2048312,7693085,729938,5426731,3916138,6983963,731698,11895,12227
8,70000,15006,12648,15074,17292,707091,706378,709827,12228,17342,15158,12656,13288,9639,413430,15068,12787,20067,271880,17283,17911,15356,888490,14875,14758,15220,860630,14864,-25434,707762,-36782,39667,27899,2625,42399,14510,-25162,1080,-31743,66116,335655,50552,152738,-26175,-32896,16289,-36829,50585,6810,49525921,49526131,49526650,50000438,50000084,49999642,15115,11127,15719,708803,709457,706365,29566135,21642923,20142996,732016,3511256,3377741,3262595,735606,3831829,2070755,7642895,735854,5438857,3939904,6968585,734496,15236,14763
9,79999,40559,37145,39616,44864,706862,706298,709904,35135,44106,41618,37155,38610,29857,409182,39597,35662,48182,288532,44847,45458,42956,869051,40396,40188,41008,862975,40379,39384,707684,28679,71255,-3449,2708,-18274,40518,10221,1050,27476,43719,346349,51962,148403,34469,-711,-46558,28618,-14853,-58642,49544605,49544761,49545132,50000419,50000214,49999627,40641,33636,40446,708803,709457,706365,29582534,21642828,20167159,731608,3543592,3401820,3300626,734091,3866972,2099293,7671174,739216,5473269,3967418,7007315,734975,41037,40197
10,90000,67917,65600,67818,70283,706437,706391,709819,64146,70299,67986,65579,66237,59369,397717,67795,64699,73004,305744,70248,70849,68314,864705,67850,67736,68175,865975,67855,-25643,707546,-36769,45118,31995,2724,40263,63546,-25105,940,-29076,16473,348511,48494,132845,-24591,31358,17298,-36808,50597,6816,49562465,49562511,49562515,50000335,50000355,49999669,66959,61082,65642,708803,709457,706365,29577962,21642595,20160701,731714,3559974,3412108,3322042,732922,3879413,2106098,7695626,739234,5487394,3975732,7029388,734620,68189,67740
11,100000,74478,74708,76313,72407,706428,706322,709816,75095,74206,72666,74683,73447,73707,387247,76279,75589,73566,317472,72371,72882,70685,863430,74421,74496,74170,868306,74448,39166,707519,28680,19932,27621,2703,-19586,65360,9230,923,29202,6633,345760,45462,130369,36510,-2268,-46330,28626,-14855,-58643,49560130,49560176,49559631,50000228,50000488,49999753,75365,75526,74700,708803,709457,706365,29573981,21641529,20156005,731775,3529982,3392694,3283478,734943,3854656,2090788,7654738,738574,5459847,3958379,6988697,735104,74157,74492
12,109999,54886,57003,58186,49517,706654,706448,709652,59008,52769,51816,57002,54288,61109,375015,58171,59479,49549,327576,49481,49922,48069,865009,54744,54948,54102,870669,54771,-25844,707582,-36777,67987,-3235,2557,40665,44294,-25517,951,-30250,30753,326993,41878,134299,-22692,30023,17281,-36816,50586,6812,49540650,49540627,49539792,50000125,50000591,49999848,59705,65788,60720,708803,709457,706365,29557312,21640183,20132986,732142,3503106,3366518,3258871,734868,3824703,2060739,7655465,733660,5430730,3929002,6968550,733560,54071,54938
13,119999,25364,27054,28458,20648,707203,706469,709793,29266,23879,22547,27075,24527,32047,356707,28451,29845,21073,336068,20636,21168,19019,879440,25174,25353,24616,873588,25185,38934,707818,28667,61956,32525,2538,-16975,15666,8309,1003,24709,60946,324428,32211,141703,38822,-3556,-46993,28602,-14870,-58644,49524277,49524029,49523171,50000049,50000652,49999920,31774,38830,33436,708803,709457,706365,29562676,21636597,20144714,731888,3496795,3350065,3264768,732597,3820226,2044949,7704032,728892,5425687,3912340,6988871,731129,24589,25344
14,129999,9890,9284,11020,9394,707471,706470,709791,10222,10518,8755,9294,8742,10243,370345,11017,10786,11049,313650,9388,9938,7634,907537,9866,9884,9808,869022,9864,-25781,707907,-36788,13087,9798,2513,43482,5690,-26741,1130,-33117,32869,321157,29870,159674,-22356,30901,15409,-36838,50577,6809,49520901,49520520,49519669,49999996,50000637,49999946,10112,14270,12608,708803,709457,706365,29555952,21637276,20134115,732078,3499820,3360271,3259321,734193,3821151,2053326,7672106,731701,5427270,3921680,6974052,732661,9805,9883
15,140000,21750,18856,21272,25098,707265,706280,709843,17638,24699,22450,18872,19935,13878,415948,21261,18158,28077,273613,25086,25694,23236,878146,21568,21407,22044,860954,21552,39457,707792,28667,55666,-4608,2575,-16400,19841,10199,1053,25810,63992,329165,47674,148904,33724,-29,-46939,28601,-14870,-58645,49531418,49531010,49530427,49999950,50000530,49999923,22418,18440,25111,708803,709457,706365,29569119,21636563,20154205,731728,3519752,3385294,3271195,735471,3842946,2081718,7643410,737610,5448706,3949431,6976241,734942,22066,21414
16,150000,50836,47502,50008,54942,706898,706408,709944,45497,54296,51717,47518,48880,40010,405051,49992,46050,58302,295114,54924,55573,52898,867494,50715,50519,51292,864077,50696,-25573,707748,-36777,69044,30912,2611,42090,46403,-24150,933,-29860,33742,333788,47398,131765,-25299,31908,17185,-36820,50585,6817,49551753,49551254,49551178,49999881,50000324,49999862,50740,44845,52601,708803,709457,706365,29573142,21639350,20157115,731723,3555041,3409401,3315152,733357,3874142,2103221,7685238,739229,5482035,3972654,7020857,734769,51318,50527
17,159999,73178,71648,73665,74182,706592,706477,709936,70731,74735,72642,71641,71711,66922,394152,73649,71267,76435,310011,74157,74742,72257,864133,73142,73086,73291,866765,73142,39232,707666,28683,25982,-754,2693,-19511,62085,10478,921,28789,8801,344411,43955,130083,35914,-1829,-46356,28627,-14853,-58640,49563701,49563289,49563537,49999794,50000038,49999799,72439,69364,72816,708803,709457,706365,29575305,21633145,20166947,731460,3553353,3408316,3312975,733472,3875115,2103995,7686088,739315,5481753,3972349,7020703,734750,73297,73088
18,170000,70440,71481,72879,66971,706714,706337,710038,72503,69345,68080,71487,69624,72490,383503,72849,72973,67597,320920,66959,67443,65367,863573,70377,70508,69954,869056,70390,-25773,707693,-36772,39923,-4509,2720,41801,55144,-25181,916,-28902,14051,347878,40567,129364,-23368,30466,17347,-36815,50592,6820,49553176,49553020,49553600,49999691,49999711,49999757,72441,74272,71043,708803,709457,706365,29560417,21639165,20138641,732031,3519560,3385321,3270775,735517,3841195,2080056,7643050,737358,5447237,3948541,6973998,734974,69933,70502
19,180000,44832,47149,48196,39210,706941,706461,710028,49336,42559,41757,47168,44322,52084,370010,48185,49782,38994,330992,39202,39608,37922,866238,44669,44884,43997,871602,44683,39025,707806,28676,72616,31107,2682,-17993,29725,8140,957,27063,40262,343007,34448,135206,37867,-3165,-46442,28613,-14859,-58641,49532044,49531964,49533116,49999588,49999410,49999753,50758,56127,48911,712144,708035,704358,29555941,21633099,20138588,731936,3499256,3358414,3260288,733906,3822561,2053779,7676247,731592,5427648,3920994,6976516,732482,43964,44873
20,189999,17545,18651,20063,13979,707271,706352,710095,20511,16651,15220,18667,16637,22692,350939,20055,21077,14675,336690,13977,14488,12410,888656,17387,17518,16980,873931,17395,-25985,707902,-36783,47406,-718,2707,43331,8671,-31972,1074,-31342,67520,346085,25815,151879,-20962,29346,16283,-36834,50584,6812,49519444,49519333,49520871,49999493,49999192,49999806,22435,28003,21727,712144,708035,704358,29553190,21633738,20133863,732026,3497389,3351156,3264732,732711,3819619,2044705,7702461,728921,5425122,3912437,6987108,731224,16961,17511
21,200000,10880,9313,11458,11881,707120,706420,710001,9651,12397,10420,9319,9439,8349,398847,11455,10213,14183,285626,11878,12470,10023,900043,10832,10775,11000,862881,10825,39387,707844,28672,21456,-9724,2629,-17487,11914,5622,1010,26984,49106,336194,56993,142848,35472,-577,-47909,28609,-14864,-58644,49520893,49520810,49522454,49999401,49999120,49999897,10022,10987,13312,712144,708035,704358,29556875,21629063,20144293,731777,3503700,3367953,3258442,735056,3826627,2062313,7656993,733851,5431927,3929888,6970045,733564,11007,10777
22,209999,30635,27292,29906,34668,706811,706342,709963,25642,34071,31557,27298,28622,20947,412864,29894,26205,38026,280844,34658,35303,32686,873338,30447,30250,31029,861823,30430,-25483,707703,-36780,66660,29973,2643,41837,28763,-25669,947,-28933,54271,338107,48947,133707,-26108,32594,16939,-36822,50582,6811,49536309,49536145,49537827,49999333,49999207,50000007,31610,28999,36351,712144,708035,704358,29563538,21634146,20148609,731784,3533227,3396275,3285972,735043,3853421,2089985,7652872,738526,5460304,3958814,6989069,735123,31056,30258
23,219999,60287,57304,59795,63706,706524,706424,709983,55541,63365,60783,57293,58370,50199,401172,59778,56125,66933,300800,63690,64345,61618,866198,60198,60032,60679,865051,60189,39301,707641,28681,59734,-2851,2648,-19776,52590,9724,901,31284,24588,338776,45245,127222,35273,-1330,-46442,28631,-14859,-58643,49557235,49556984,49558410,49999321,49999425,50000118,59488,56746,63500,712144,708035,704358,29574803,21628071,20171653,731301,3559686,3411812,3321797,732918,3881281,2107545,7697425,739386,5487942,3975660,7031064,734533,60701,60039
24,230000,75386,74765,76510,74859,706431,706466,709951,74454,75989,74236,74740,74182,71754,390826,76492,74944,76532,313893,74836,75360,73106,863378,75349,75358,75299,867537,75360,-25713,707614,-36775,7514,-25007,2629,40084,62330,-25020,845,-26123,2471,336270,42830,119401,-23978,30890,17347,-36809,50584,6812,49562999,49562896,49563747,49999409,49999696,50000187,75306,74223,75376,712144,708035,704358,29565331,21636002,20149250,731802,3543573,3402557,3299753,734253,3865004,2097560,7670193,738982,5471268,3966188,7004295,735016,75296,75357
25,239999,63628,65365,66538,59013,706739,706548,709990,66911,61846,60874,65372,63029,68044,379657,66530,67354,59198,324340,58998,59421,57604,863529,63538,63716,62973,869868,63548,39100,707757,28678,56835,30186,2546,-19533,47191,9073,894,30838,22158,325436,38454,126337,37134,-2708,-46335,28629,-14864,-58643,49547393,49547523,49547947,49999611,49999954,50000202,67116,68850,63320,712144,708035,704358,29557921,21630999,20143745,731816,3509417,3375178,3261791,735433,3833291,2071175,7647420,735723,5438100,3938453,6969483,734328,62946,63707
26,250000,34743,36860,38130,29308,707256,706439,709912,39192,32762,31667,36892,34072,42172,363667,38120,39723,29411,333849,29297,29783,27805,871611,34559,34767,33909,872650,34569,-25934,707866,-36784,70793,-2244,2526,42407,24973,-25979,1080,-30271,50736,322885,37409,152713,-21852,29565,17007,-36827,50579,6807,49528267,49528508,49528764,49999885,50000126,50000141,40886,44557,36529,712144,708035,704358,29552818,21634074,20132958,732047,3497878,3353588,3262970,733140,3820268,2047600,7692876,729829,5425661,3915245,6982834,731676,33878,34757
27,259999,12193,12541,14012,10069,707524,706446,709734,13951,11994,10439,12557,11232,15177,352216,14008,14507,11192,331784,10062,10570,8469,900583,12104,12182,11861,873008,12107,38963,707898,28669,29260,-32907,2448,-16904,13268,6047,1180,25457,59872,312922,56749,166721,39139,-3227,-47937,28607,-14867,-58647,49520382,49520676,49520810,50000179,50000156,50000023,15305,18204,13216,712144,708035,704358,29556463,21630677,20141956,731842,3497897,3353938,3262611,733213,3821348,2048429,7693977,729918,5426408,3915703,6983963,731661,11850,12178
