DeliveryTest,CMU,1999
78,78A,0D
1,Terminal_Voltage,,, V,0.001435247132,0.0,0.0,-32767,32767,1,1,P
2,U RMS Sig (a) a,,, V,0.000838982283,0.0,0.0,-32767,32767,1,1,P
3,U RMS Sig (b) b,,, V,0.000812340813,0.0,0.0,-32767,32767,1,1,P
4,U RMS Sig (c) c,,, V,0.000834946041,0.0,0.0,-32767,32767,1,1,P
5,I RMS Sig (a) a,,, A,0.000001000000,0.0,0.0,-648,648,1,1,P
6,I RMS Sig (b) b,,, A,0.000001000000,0.0,0.0,-370,370,1,1,P
7,I RMS Sig (c) c,,, A,0.000001000000,0.0,0.0,-370,370,1,1,P
8,U RMS Sig (ab) ab,,, V,0.001422610693,0.0,0.0,-32767,32767,1,1,P
9,U RMS Sig (bc) bc,,, V,0.001433368306,0.0,0.0,-32767,32767,1,1,P
10,U RMS Sig (ca) ca,,, V,0.001465362556,0.0,0.0,-32767,32767,1,1,P
11,SGLP Sig (a) Apparent a,,, VA,0.000592744794,0.0,0.0,-32767,32767,1,1,P
12,SGLP Sig (a) Active a,,, W,0.000520393556,0.0,0.0,-32767,32767,1,1,P
13,SGLP Sig (a) Reactive a,,, var,0.000285506325,0.0,0.0,-32767,32767,1,1,P
14,SGLP Sig (a) Cos Phi a,,, ,0.000001000000,0.0,0.0,-28763,28763,1,1,P
15,SGLP Sig (b) Apparent b,,, VA,0.000575729404,0.0,0.0,-32767,32767,1,1,P
16,SGLP Sig (b) Active b,,, W,0.000500899230,0.0,0.0,-32767,32767,1,1,P
17,SGLP Sig (b) Reactive b,,, var,0.000302919351,0.0,0.0,-32767,32767,1,1,P
18,SGLP Sig (b) Cos Phi b,,, ,0.000002667700,0.0,0.0,-32767,32767,1,1,P
19,SGLP Sig (c) Apparent c,,, VA,0.000591440888,0.0,0.0,-32767,32767,1,1,P
20,SGLP Sig (c) Active c,,, W,0.000514551133,0.0,0.0,-32767,32767,1,1,P
21,SGLP Sig (c) Reactive c,,, var,0.000305525045,0.0,0.0,-32767,32767,1,1,P
22,SGLP Sig (c) Cos Phi c,,, ,0.000001897694,0.0,0.0,-32767,32767,1,1,P
23,SUMP Sig Apparent,,, VA,0.001759991733,0.0,0.0,-32767,32767,1,1,P
24,SUMP Sig Active,,, W,0.001527776083,0.0,0.0,-32767,32767,1,1,P
25,SUMP Sig Reactive,,, var,0.000873894339,0.0,0.0,-32767,32767,1,1,P
26,SUMP Sig Cos Phi,,, ,0.000001000000,0.0,0.0,-7031,7031,1,1,P
27,U POSSEQ Sig Mag,,, V,0.000828885740,0.0,0.0,-32767,32767,1,1,P
28,U POSSEQ Sig Phase,,, rad,0.000048372127,0.0,0.0,-32767,32767,1,1,P
29,I POSSEQ Sig Mag,,, A,0.000001000000,0.0,0.0,-285,285,1,1,P
30,I POSSEQ Sig Phase,,, rad,0.000047984431,0.0,0.0,-32767,32767,1,1,P
31,U NEGSEQ Sig Mag,,, V,0.000058305608,0.0,0.0,-32767,32767,1,1,P
32,U NEGSEQ Sig Phase,,, rad,0.000071801470,0.0,0.0,-32767,32767,1,1,P
33,I NEGSEQ Sig Mag,,, A,0.000001000000,0.0,0.0,-353,353,1,1,P
34,I NEGSEQ Sig Phase,,, rad,0.000051602837,0.0,0.0,-32767,32767,1,1,P
35,U ZEROSEQ Sig Mag,,, V,0.000001160767,0.0,0.0,-32767,32767,1,1,P
36,U ZEROSEQ Sig Phase,,, rad,0.000076488569,0.0,0.0,-32767,32767,1,1,P
37,I ZEROSEQ Sig Mag,,, A,0.000001000000,0.0,0.0,-210,210,1,1,P
38,I ZEROSEQ Sig Phase,,, rad,0.000054390582,0.0,0.0,-32767,32767,1,1,P
39,U NEGSEQRATIO Sig,,, %,0.000281746063,0.0,0.0,-32767,32767,1,1,P
40,I NEGSEQRATIO Sig,,, %,0.000001524115,0.0,0.0,-32767,32767,1,1,P
41,U ZEROSEQRATIO Sig,,, %,0.000002389755,0.0,0.0,-32767,32767,1,1,P
42,I ZEROSEQRATIO Sig,,, %,0.000001000000,0.0,0.0,-29680,29680,1,1,P
43,U PH Sig (a) a,,, rad,0.000049597346,0.0,0.0,-32767,32767,1,1,P
44,U PH Sig (b) b,,, rad,0.000094941331,0.0,0.0,-32767,32767,1,1,P
45,U PH Sig (c) c,,, rad,0.000051657623,0.0,0.0,-32767,32767,1,1,P
46,I PH Sig (a) a,,, rad,0.000047996999,0.0,0.0,-32767,32767,1,1,P
47,I PH Sig (b) b,,, rad,0.000047982436,0.0,0.0,-32767,32767,1,1,P
48,I PH Sig (c) c,,, rad,0.000047984522,0.0,0.0,-32767,32767,1,1,P
49,U FRQ Sig (a) a,,, Hz,0.000001000000,0.0,0.0,-24996,24996,1,1,P
50,U FRQ Sig (b) b,,, Hz,0.000001000000,0.0,0.0,-23685,23685,1,1,P
51,U FRQ Sig (c) c,,, Hz,0.000001000000,0.0,0.0,-24454,24454,1,1,P
52,I FRQ Sig (a) a,,, Hz,0.000001000000,0.0,0.0,-975,975,1,1,P
53,I FRQ Sig (b) b,,, Hz,0.000001000000,0.0,0.0,-742,742,1,1,P
54,I FRQ Sig (c) c,,, Hz,0.000001000000,0.0,0.0,-969,969,1,1,P
55,U TRMS PQ1 Sig (a) a,,, V,0.000832947652,0.0,0.0,-32767,32767,1,1,P
56,U TRMS PQ1 Sig (b) b,,, V,0.000832718947,0.0,0.0,-32767,32767,1,1,P
57,U TRMS PQ1 Sig (c) c,,, V,0.000829607129,0.0,0.0,-32767,32767,1,1,P
58,I TRMS PQ3 Sig (a) a,,, A,0.000001000000,0.0,0.0,-3235,3235,1,1,P
59,I TRMS PQ3 Sig (b) b,,, A,0.000001000000,0.0,0.0,-3186,3186,1,1,P
60,I TRMS PQ3 Sig (c) c,,, A,0.000001000000,0.0,0.0,-3229,3229,1,1,P
61,SGLPC Sig (a) Sc a,,, VA,0.000002224590,0.0,0.0,-32767,32767,1,1,P
62,SGLPC Sig (a) Pc a,,, W,0.000001000000,0.0,0.0,-18355,18355,1,1,P
63,SGLPC Sig (a) Nc a,,, var,0.000003287640,0.0,0.0,-32767,32767,1,1,P
64,SGLPC Sig (a) PFc a,,, ,0.000001000000,0.0,0.0,-1946,1946,1,1,P
65,SGLPC Sig (b) Sc b,,, VA,0.000010239709,0.0,0.0,-32767,32767,1,1,P
66,SGLPC Sig (b) Pc b,,, W,0.000009969414,0.0,0.0,-32767,32767,1,1,P
67,SGLPC Sig (b) Nc b,,, var,0.000005885032,0.0,0.0,-32767,32767,1,1,P
68,SGLPC Sig (b) PFc b,,, ,0.000001000000,0.0,0.0,-3460,3460,1,1,P
69,SGLPC Sig (c) Sc c,,, VA,0.000004279471,0.0,0.0,-32767,32767,1,1,P
70,SGLPC Sig (c) Pc c,,, W,0.000007066160,0.0,0.0,-32767,32767,1,1,P
71,SGLPC Sig (c) Nc c,,, var,0.000002415197,0.0,0.0,-32767,32767,1,1,P
72,SGLPC Sig (c) PFc c,,, ,0.000001000000,0.0,0.0,-4436,4436,1,1,P
73,SUMPC Sig Sc,,, VA,0.000016292938,0.0,0.0,-32767,32767,1,1,P
74,SUMPC Sig Pc,,, W,0.000016562680,0.0,0.0,-32767,32767,1,1,P
75,SUMPC Sig Nc,,, var,0.000008771813,0.0,0.0,-32767,32767,1,1,P
76,SUMPC Sig PFc,,, ,0.000001000000,0.0,0.0,-2064,2064,1,1,P
77,QCorr,,, VAr,0.000843608725,0.0,0.0,-32767,32767,1,1,P
78,PCorr,,, W,0.001544708830,0.0,0.0,-32767,32767,1,1,P
 50.000000
0
0.00,1701
23/08/2022,16:46:09.020000
23/08/2022,16:46:19.020000
ASCII
1
1,0,63068,58590,65430,65243,706693,708708,708087,60855,66847,60851,58605,58400,58934,874861,65428,62848,68290,313271,65219,66240,59111,465629,63004,62807,63591,865350,62989,46745,707826,36185,55133,-8575,2134,-32411,54916,17811,947,35911,21853,197831,51088,133714,45225,2385,-38124,36198,-7397,-51196,49559273,49558970,49559372,49999528,49999791,50000423,60769,64869,66890,708530,705625,710653,13328560,21629789,6168791,729490,2942190,2224396,3465234,736077,6946979,3105333,8305201,738083,5493755,3969677,6924194,734542,63619,62816
2,9999,75350,74847,76419,74785,706596,708510,708049,75929,75071,74260,74856,74258,76371,870924,76396,76390,71604,326103,74753,74116,73208,454547,75320,75301,75365,867844,75327,-18301,707716,-29285,7055,-22180,2103,28984,62727,-23755,953,-21285,2338,195005,48796,134555,-17953,-31396,23528,-29255,58077,14275,49562065,49561717,49561443,49999409,49999935,50000289,60769,64869,66890,708530,705625,710653,13305567,21635463,6144174,730942,2921883,2212508,3434922,737231,6927769,3093390,8292963,737284,5472707,3957769,6890914,735155,75367,75302
3,19999,60752,64102,60696,57413,706781,708483,707866,64168,56577,60864,64127,63132,66962,864310,60676,62951,49631,338361,57373,55380,60302,442520,60642,60795,60162,870248,60658,46547,707707,36187,60690,34233,1945,-32051,47095,17698,966,34222,24980,180261,45496,136499,45654,948,-36438,36196,-7396,-51188,49544597,49544398,49543510,49999371,50000099,50000098,75549,74781,75427,708530,705625,710653,13279775,21638446,6117596,732462,2888230,2183319,3402200,735982,6898772,3066526,8302466,733953,5440328,3928918,6861255,734139,60139,60788
4,29999,31376,35295,31370,27430,707105,708356,707941,35317,26788,31670,35324,34195,38649,849862,31354,33811,20625,351686,27415,25581,30988,427788,31169,31348,30610,873049,31179,-18522,707799,-29291,68008,-7528,1767,30384,23176,-21571,1050,-24874,54459,163753,43559,148473,-17137,33071,25334,-29273,58071,14278,49526002,49526005,49524789,49999425,50000225,49999878,66027,61325,59809,707949,708778,707962,13271237,21644943,6106977,733153,2878842,2162835,3415632,731455,6888304,3045140,8342461,729943,5430502,3907856,6877264,731526,30583,31340
5,39999,11033,12012,11727,9369,707380,708404,707931,12637,9933,10454,12026,11267,14202,822494,11723,12533,8179,348677,9364,9126,9611,446795,10976,11021,10835,871616,10976,46485,707902,36178,22645,42295,1654,-30423,5603,24395,1109,31869,51513,153220,29913,156727,47208,219,-36732,36177,-7403,-51190,49519563,49519741,49518411,49999566,50000274,49999676,39418,34907,31959,707949,708778,707962,13272575,21643667,6108727,733036,2879346,2165978,3411200,732390,6890088,3048826,8335558,730637,5431472,3911244,6873040,732029,10828,11019
6,50000,16992,13496,19021,18522,707239,708417,707965,15612,20075,15215,13510,13271,14198,862426,19013,16962,22785,290943,18512,19677,13639,487298,16858,16709,17304,860356,16848,-18004,707870,-29293,45423,31761,1707,30548,13736,-26934,1052,-25679,67313,158095,47774,148719,-17631,-29645,20822,-29277,58069,14279,49527234,49527649,49526467,49999757,50000232,49999546,14458,13035,10183,707949,708778,707962,13285493,21639789,6122838,732192,2895414,2191797,3405041,737006,6902323,3072401,8293137,734980,5446569,3936608,6862622,734733,17326,16715
7,59999,44137,38634,46867,46993,706847,708409,707865,41286,48994,41720,38652,38561,38722,875874,46846,43514,52444,302927,46961,48549,39734,473956,43994,43752,44720,863277,43986,46828,707705,36183,71155,-9640,1864,-31303,40567,15106,968,33320,40386,172709,54044,136781,45173,2894,-38792,36188,-7399,-51189,49546779,49547427,49546738,49999954,50000110,49999527,17838,24372,22381,707949,708778,707962,13317600,21629293,6158105,730073,2929892,2217290,3446708,736805,6935459,3098614,8296449,737710,5481443,3962503,6905152,734861,44754,43763
8,70000,69881,66497,71802,71383,706388,708365,708008,68343,72531,68036,66485,66211,66996,874309,71766,69909,72396,317694,71348,71859,66558,461731,69820,69675,70252,866251,69832,-18236,707583,-29284,39163,36513,2110,30213,58363,-24938,897,-22434,14001,195704,48974,126763,-18099,-30933,22997,-29261,58079,14278,49562858,49563609,49563484,50000114,49999957,49999619,44169,51682,50710,707949,708778,707962,13319703,21629730,6160045,729973,2940379,2223126,3462919,736109,6944343,3103874,8302946,738017,5490706,3968286,6918690,734692,70272,69682
9,79999,73297,74268,73918,71685,706329,708318,708022,74952,71516,72652,74249,73499,76254,869076,73876,74779,66517,330120,71652,70469,71790,450881,73235,73286,73068,868662,73264,46613,707553,36188,26484,31909,2085,-30885,58458,16926,852,36703,9025,193332,46757,120421,45462,1461,-37017,36197,-7394,-51188,49557697,49558646,49558960,50000217,49999821,49999802,69024,72358,72449,707949,708778,707962,13294033,21627423,6135356,731304,2908039,2202367,3418016,737346,6917164,3085560,8290136,736545,5459600,3947838,6875333,735071,73060,73284
10,90000,51564,55517,51482,47648,706621,708282,708059,55545,46808,51785,55525,54388,58836,859947,51450,54069,39606,342732,47629,45540,51172,438343,51409,51591,50841,871129,51430,-18442,707652,-29290,69625,-8617,1956,30935,37186,-23352,917,-22959,33799,181277,42370,129574,-17526,-32437,24652,-29270,58072,14277,49537511,49538696,49539510,50000236,49999733,50000026,74581,71563,72489,707949,708778,707962,13270674,21635057,6109658,732849,2882540,2174338,3404095,734401,6891737,3057210,8313526,732471,5433654,3919333,6862552,733248,50814,51583
11,100000,22363,25609,22502,18955,707058,708285,707955,25726,18578,22532,25628,24617,28597,843281,22489,24505,13598,355378,18945,17502,21821,423521,22162,22314,21685,874028,22170,46382,707764,36178,57018,36866,1745,-29902,14310,19168,1024,32776,64212,161656,37824,144749,46451,-331,-35214,36177,-7403,-51190,49522271,49523415,49524735,50000175,49999718,50000236,56716,49871,50811,707949,708778,707962,13267709,21637308,6105970,733089,2877919,2159868,3418662,730686,6888801,3043841,8347805,729579,5429571,3905055,6880400,731127,21663,22307
12,109999,9830,9323,10911,9283,707124,708235,708012,10404,10264,8740,9331,8740,11023,822321,10904,10896,10243,325866,9279,9624,7742,475488,9808,9790,9858,866529,9807,-18254,707788,-29296,12610,16288,1738,32305,7889,-19998,1070,-26005,32106,161069,47138,151245,-16135,-31385,21889,-29285,58070,14277,49520673,49521576,49523068,50000046,49999756,50000381,28708,22907,22488,707949,708778,707962,13270088,21635944,6108784,732912,2881521,2172719,3404450,734115,6890356,3054602,8318135,731993,5432570,3917299,6863733,733015,9861,9791
13,119999,24625,20009,27083,26861,706871,708398,707959,22508,28711,22505,20018,19852,20444,870649,27071,24269,32198,292378,26847,28320,20640,483611,24458,24257,25056,860948,24448,46918,707740,36178,60144,-10969,1842,-30003,21921,16387,955,32062,61422,170713,52543,134920,45378,3381,-39644,36177,-7402,-51191,49533151,49533718,49535199,49999886,49999825,50000438,10686,13079,10029,707949,708778,707962,13292478,21626248,6134196,731349,2905436,2200590,3414596,737411,6913233,3082820,8288569,736309,5456716,3945529,6872158,735029,25084,24266
14,129999,54033,48830,56535,56804,706496,708372,708087,51224,58562,51768,48829,48762,48762,876720,56507,53376,61189,308063,56783,58129,49984,469321,53920,53687,54616,864316,53917,-18160,707649,-29287,66600,34986,2045,30741,46685,-24863,882,-22899,30840,189656,50739,124532,-18205,-30443,22401,-29266,58076,14278,49554043,49554038,49555405,49999722,49999885,50000400,28086,35627,31633,707949,708778,707962,13316224,21623748,6158544,729961,2938765,2222166,3460538,736196,6942158,3102979,8300077,738036,5488638,3966965,6915729,734724,54648,53698
15,140000,74168,72157,75695,74672,706398,708400,707938,73647,75421,72656,72145,71706,73160,872596,75660,74701,73623,321998,74628,74580,71371,458156,74121,74035,74374,867045,74139,46679,707576,36188,19067,-4940,2136,-31506,63683,16828,929,35912,6421,198054,50334,131250,45319,1925,-37549,36199,-7392,-51192,49564415,49563827,49564709,49999608,49999923,50000297,55721,62631,59498,707949,708778,707962,13312362,21618909,6156293,730010,2931527,2217843,3449895,736577,6938332,3100466,8298069,737845,5482519,3962998,6907087,734809,74385,74039
16,150000,68357,70637,68668,65735,706523,708323,708120,71040,65260,68054,70638,69704,73248,866334,68629,70319,59104,334163,65713,64084,67334,447081,68280,68381,67958,869347,68300,-18364,707652,-29285,45412,-9957,2063,30378,56693,-23541,933,-21286,16600,191294,48640,131785,-17772,-31874,24060,-29261,58077,14277,49552299,49551395,49551704,49999574,49999942,50000167,74093,75299,75326,707949,708778,707962,13279731,21627337,6121186,732088,2897069,2193078,3406934,737016,6905095,3075483,8290600,735423,5447554,3937942,6862588,734850,67942,68377
17,159999,41342,45519,41154,37309,706903,708366,708075,45422,36402,41741,45544,44428,48816,856424,41133,43788,29475,347191,37295,35194,41216,432634,41157,41344,40576,871989,41169,46468,707779,36179,72143,35419,1895,-30377,28774,18534,1004,34440,43751,175607,40957,141903,45954,331,-35791,36183,-7401,-51194,49531682,49530613,49530675,49999615,49999950,50000037,69590,64107,67153,707949,708778,707962,13267172,21632467,6107023,732955,2879119,2166377,3409893,732582,6889860,3050344,8330209,731025,5430532,3911455,6870046,732196,40548,41335
18,170000,15446,17666,15923,12742,707184,708306,708149,18062,12901,15235,17683,16733,20436,830750,15914,17377,9443,356117,12739,11891,14392,427909,15300,15401,14981,873842,15303,-18559,707876,-29296,41417,-5073,1804,32042,7510,-19948,1106,-24883,67573,167166,28756,156357,-16435,32693,25321,-29282,58071,14273,49520627,49519486,49519460,49999699,49999957,49999920,45637,37703,40917,707949,708778,707962,13265918,21635694,6104719,733133,2878024,2161518,3415936,731218,6887384,3043793,8344285,729717,5429020,3905930,6877128,731365,14966,15397
19,180000,11925,9853,13502,12466,707159,708404,708031,11511,13763,10431,9861,9446,11079,840947,13497,12458,15285,301031,12461,13250,9161,487479,11854,11765,12120,861526,11848,46896,707861,36176,27455,-15125,1808,-29608,10669,13441,1091,31990,57858,167503,52771,154253,46535,2984,-40014,36174,-7400,-51195,49523465,49522446,49522454,49999799,49999973,49999829,18719,13831,15330,707949,708778,707962,13274361,21630424,6114840,732489,2886100,2180856,3401260,735694,6895865,3063330,8304985,733498,5437486,3925588,6860280,733900,12133,11769
20,189999,33841,28589,36392,36623,706868,708269,708015,31097,38499,31648,28603,28565,28560,876756,36369,33118,42178,296976,36606,38174,29799,478096,33677,33445,34369,862090,33667,-18071,707715,-29290,68661,33911,1872,31158,30269,-25532,1014,-24170,50918,173452,52685,143305,-18211,-29915,21665,-29272,58075,14279,49539685,49538857,49539178,49999879,49999988,49999752,15654,19871,15325,707949,708778,707962,13299208,21625928,6140976,730969,2918114,2209751,3430314,737264,6923052,3090629,8289409,737127,5468224,3954355,6885619,735123,34402,33455
21,200000,63008,58530,65316,65237,706545,708271,707974,60738,66785,60850,58533,58354,58775,875255,65274,62682,68174,313183,65203,66215,59124,465566,62923,62728,63504,865377,62929,46747,707594,36187,55340,-8351,1994,-30666,53280,17046,932,35481,21956,184867,49613,131621,45205,2391,-38111,36194,-7394,-51188,49559345,49558658,49559330,49999939,50000007,49999687,40274,47442,40919,707949,708778,707962,13320864,21616860,6165372,729475,2940856,2222829,3464692,735892,6946806,3105386,8304577,738114,5491821,3967975,6922378,734485,63531,62737
22,209999,75328,74816,76387,74780,706415,708419,707968,75891,75052,74249,74806,74217,76292,871027,76354,76345,71572,326092,74739,74119,73150,454643,75285,75273,75308,867927,75305,-18299,707598,-29279,7161,-22553,2029,29383,60384,-24355,818,-21706,2374,188111,46988,115483,-17955,-31394,23533,-29252,58079,14287,49561878,49561385,49562252,49999988,50000022,49999638,65813,70719,67175,707949,708778,707962,13299670,21625357,6141619,730925,2921129,2211855,3434190,737204,6924359,3091490,8290087,737194,5470532,3955954,6888669,735110,75308,75274
23,219999,60788,64113,60782,57428,706569,708375,708142,64228,56639,60854,64118,63091,67054,863866,60752,63032,49689,338368,57412,55447,60263,442760,60677,60830,60199,870240,60696,46545,707693,36185,60483,34377,1987,-30053,44114,17374,857,35241,24879,184253,42591,121019,45665,947,-36453,36189,-7396,-51187,49544296,49544128,49545200,50000034,50000034,49999626,74920,73591,75346,707949,708778,707962,13272015,21624104,6114576,732404,2887010,2182022,3401453,735855,6898323,3066506,8301357,733996,5438384,3927262,6859315,734092,60176,60823
24,230000,31234,35176,31087,27401,706977,708385,708032,35082,26606,31651,35199,34148,38291,851732,31073,33510,20426,351718,27389,25493,31108,426719,31025,31204,30466,873074,31035,-18524,707796,-29292,67787,-7921,1834,30414,19942,-20884,995,-24012,54533,169890,37654,140610,-17208,33068,25399,-29272,58069,14276,49525479,49525585,49526910,50000057,50000045,49999680,60620,53940,59482,710663,708769,704852,13263026,21630891,6103416,733131,2878123,2161715,3415830,731259,6886767,3044680,8339913,729995,5428523,3906138,6875354,731471,30439,31196
25,239999,11046,12010,11771,9368,707137,708264,708057,12664,9965,10435,12020,11247,14232,821423,11764,12579,8199,348735,9365,9147,9556,447795,10986,11036,10832,871944,10988,46465,707816,36172,22759,42551,1755,-29151,4369,28546,1067,32822,51713,162558,23297,150878,47239,213,-36808,36170,-7406,-51197,49519063,49519322,49520677,50000053,50000049,49999798,33264,25744,31584,710663,708769,704852,13264500,21629043,6105486,732987,2878133,2164899,3410064,732334,6889560,3048666,8334688,730655,5429468,3909643,6870823,732000,10825,11033
26,250000,17081,13569,19193,18546,706963,708219,707992,15783,20183,15205,13577,13284,14435,858936,19180,17154,22896,291687,18537,19732,13537,488018,16943,16795,17385,860469,16936,-18009,707722,-29294,45709,31343,1847,31130,14472,-22666,1078,-24014,67387,171158,50072,152337,-17492,-29677,20746,-29276,58071,14273,49526818,49527207,49528348,50000007,50000026,49999951,12661,10266,10036,710663,708769,704852,13277787,21627755,6119118,732209,2894839,2191363,3404364,737007,6900537,3071426,8291562,734937,5444686,3935204,6860338,734725,17406,16801
27,259999,44075,38596,46747,46964,706630,708295,708115,41181,48920,41709,38602,38540,38578,876521,46719,43384,52327,302848,46948,48522,39773,473817,43932,43693,44646,863345,43924,46824,707677,36182,71129,-9497,2052,-29811,43041,17638,1001,35008,40429,190297,57421,141545,45143,2900,-38787,36185,-7394,-51196,49546303,49546714,49547558,49999923,49999969,50000091,25749,30039,22701,710663,708769,704852,13308919,21614865,6154197,730062,2928636,2216130,3445617,736735,6935788,3099085,8295807,737787,5479557,3961134,6902788,734860,44680,43704
