DeliveryTest,CMU,1999
6,6A,0D
1,U Sig (a) a,,, V,0.002875097642,0.0,0.0,-32767,32767,1,1,P
2,U Sig (b) b,,, V,0.002875912807,0.0,0.0,-32767,32767,1,1,P
3,U Sig (c) c,,, V,0.002861203282,0.0,0.0,-32767,32767,1,1,P
4,I Sig (a) a,,, A,0.000030803308,0.0,0.0,-32767,32767,1,1,P
5,I Sig (b) b,,, A,0.000030691561,0.0,0.0,-32767,32767,1,1,P
6,I Sig (c) c,,, A,0.000030767351,0.0,0.0,-32767,32767,1,1,P
 50.000000
0
0.00,45457
23/08/2022,16:46:18.019968
23/08/2022,16:46:19.020000
ASCII
1
1,0,-20784,32434,-12033,-4841,30306,-25359
2,66,-21324,32323,-11303,-5718,30520,-24911
3,132,-21843,32188,-10673,-6365,30814,-24400
4,198,-22431,31995,-9961,-6915,31030,-24089
5,264,-22864,31922,-9381,-7500,31089,-23556
6,330,-23331,31757,-8752,-8248,31480,-23176
7,396,-23870,31577,-8031,-8997,31650,-22615
8,462,-24343,31466,-7370,-9601,31726,-22097
9,528,-24720,31049,-6691,-10255,31787,-21466
10,594,-25153,30802,-6012,-10868,31814,-21128
11,660,-25589,30616,-5345,-11558,31900,-20711
12,726,-25993,30370,-4758,-12272,32042,-20076
13,792,-26472,30113,-4031,-12824,32098,-19578
14,858,-26854,29856,-3327,-13567,32185,-18966
15,924,-27205,29483,-2675,-14018,32213,-18379
16,990,-27583,29283,-1968,-14413,32222,-17855
17,1056,-27768,28879,-1314,-15159,32460,-17221
18,1122,-28340,28539,-579,-15691,32439,-16631
19,1188,-28501,28236,141,-16366,32426,-16003
20,1254,-28915,27861,780,-16860,32538,-15306
21,1320,-29241,27452,1544,-17365,32438,-14764
22,1386,-29530,27124,2097,-17934,32385,-14143
23,1452,-29822,26634,2743,-18464,32294,-13557
24,1518,-30038,26255,3507,-19087,32194,-13013
25,1584,-30303,25855,4120,-19726,32096,-12345
26,1650,-30542,25350,4797,-20150,32045,-11786
27,1716,-30762,24998,5500,-20673,31866,-11303
28,1782,-30984,24549,6211,-21264,31850,-10647
29,1848,-31212,24089,6882,-21714,31854,-9960
30,1914,-31385,23647,7467,-22268,31542,-9327
31,1980,-31497,23117,8095,-22811,31305,-8603
32,2046,-31657,22569,8778,-23234,31098,-8044
33,2112,-31808,22117,9346,-23692,30785,-7417
34,2178,-31894,21572,9978,-24237,30637,-6762
35,2244,-31998,21050,10640,-24640,30408,-6130
36,2310,-32146,20562,11373,-25013,30260,-5418
37,2376,-32213,20057,11917,-25498,30012,-4716
38,2442,-32281,19467,12551,-25843,29707,-4063
39,2508,-32304,18922,13127,-26305,29466,-3334
40,2574,-32330,18334,13752,-26704,29203,-2631
41,2640,-32391,17735,14257,-27149,28887,-1985
42,2706,-32392,17233,14882,-27428,28625,-1266
43,2772,-32407,16579,15485,-27846,28355,-627
44,2838,-32392,16018,16058,-28231,28090,112
45,2904,-32357,15442,16625,-28468,27755,703
46,2970,-32292,14796,17172,-28674,27343,1436
47,3036,-32173,14160,17691,-28948,26877,2058
48,3102,-32125,13603,18231,-29234,26554,2759
49,3168,-32006,12989,18730,-29518,26126,3531
50,3234,-31980,12326,19271,-29753,25772,4166
51,3300,-31834,11715,19780,-29923,25372,4865
52,3366,-31709,11110,20279,-30203,24932,5604
53,3432,-31552,10423,20716,-30452,24469,6180
54,3498,-31387,9793,21206,-30802,24095,6804
55,3564,-31174,9164,21655,-30894,23454,7499
56,3630,-30952,8528,22105,-31162,23068,8084
57,3696,-30821,7869,22556,-31358,22570,8743
58,3762,-30593,7225,23087,-31553,22071,9390
59,3828,-30407,6583,23450,-31754,21497,10036
60,3894,-30148,5956,23896,-31815,21013,10637
61,3960,-29870,5288,24229,-31954,20544,11189
62,4026,-29580,4641,24602,-32019,19920,11824
63,4092,-29277,3953,24955,-32063,19370,12452
64,4158,-28953,3303,25349,-32163,18853,12983
65,4224,-28688,2646,25708,-32268,18233,13645
66,4290,-28385,2019,26053,-32301,17658,14217
67,4356,-28104,1380,26368,-32373,17090,14825
68,4422,-27752,681,26696,-32349,16602,15421
69,4488,-27333,57,26973,-32341,16011,16050
70,4554,-26988,-581,27213,-32218,15401,16589
71,4620,-26560,-1194,27508,-32175,14897,17235
72,4686,-26204,-1876,27764,-32120,14289,17832
73,4752,-25851,-2542,28031,-32108,13824,18443
74,4818,-25419,-3175,28288,-32038,13167,19055
75,4884,-25033,-3801,28498,-31990,12597,19536
76,4950,-24577,-4424,28647,-31891,11891,20118
77,5016,-24121,-5065,28844,-31746,11231,20594
78,5082,-23619,-5688,28978,-31690,10539,21126
79,5148,-23194,-6270,29170,-31626,10031,21663
80,5214,-22766,-6928,29351,-31516,9314,22087
81,5280,-22287,-7499,29498,-31371,8637,22606
82,5346,-21809,-8094,29646,-31274,7993,23090
83,5412,-21315,-8729,29747,-31046,7320,23500
84,5478,-20773,-9272,29806,-30799,6637,24007
85,5544,-20292,-9855,29875,-30429,5954,24386
86,5610,-19748,-10455,29917,-30190,5213,24882
87,5676,-19278,-11018,30043,-29941,4598,25304
88,5742,-18729,-11606,30063,-29780,3987,25715
89,5808,-18254,-12186,30092,-29457,3227,26109
90,5874,-17659,-12757,30127,-29097,2576,26511
91,5940,-17067,-13276,30109,-28832,1896,26879
92,6006,-16577,-13798,30046,-28497,1307,27211
93,6072,-15992,-14258,30018,-28241,588,27415
94,6138,-15381,-14847,29970,-27942,-39,27948
95,6204,-14854,-15378,29855,-27583,-660,28185
96,6270,-14288,-15882,29864,-27310,-1351,28529
97,6336,-13761,-16388,29758,-26914,-1977,28862
98,6402,-13166,-16871,29686,-26531,-2724,29181
99,6468,-12582,-17322,29573,-26180,-3399,29408
100,6534,-11937,-17789,29413,-25689,-4072,29631
101,6600,-11383,-18194,29280,-25279,-4619,29828
102,6666,-10770,-18673,29121,-24818,-5360,30072
103,6732,-10205,-19117,29015,-24393,-6012,30431
104,6798,-9602,-19632,28848,-23955,-6831,30592
105,6864,-9008,-19999,28669,-23468,-7534,30792
106,6930,-8414,-20370,28413,-23045,-8233,30996
107,6996,-7850,-20688,28159,-22540,-8729,31061
108,7062,-7218,-21088,27950,-22135,-9450,31349
109,7128,-6601,-21475,27725,-21654,-10040,31560
110,7194,-5999,-21848,27559,-21028,-10680,31583
111,7260,-5367,-22203,27282,-20666,-11313,31857
112,7326,-4801,-22529,26981,-19982,-11866,31973
113,7392,-4271,-22860,26756,-19603,-12609,32009
114,7458,-3583,-23123,26325,-19054,-13298,32127
115,7524,-3039,-23498,26116,-18486,-13814,31989
116,7590,-2401,-23582,25794,-17970,-14455,32122
117,7656,-1812,-23994,25477,-17442,-14880,32222
118,7722,-1245,-24276,25149,-16829,-15563,32258
119,7788,-587,-24518,24893,-16328,-16204,32309
120,7854,30,-24863,24471,-15688,-16725,32225
121,7920,588,-24947,24096,-15087,-17297,32251
122,7986,1126,-25213,23741,-14339,-17905,32138
123,8052,1742,-25348,23337,-13891,-18509,32143
124,8118,2354,-25601,22892,-13176,-18944,32124
125,8184,2875,-25791,22583,-12585,-19455,32024
126,8250,3566,-25859,22124,-12100,-20118,32057
127,8316,4035,-26113,21760,-11357,-20605,31944
128,8382,4720,-26333,21347,-10860,-21173,31831
129,8448,5206,-26391,20942,-10064,-21677,31614
130,8514,5726,-26436,20437,-9579,-22103,31627
131,8580,6223,-26629,20012,-8777,-22601,31431
132,8646,6786,-26617,19628,-8094,-23120,31249
133,8712,7322,-26795,19079,-7537,-23512,30956
134,8778,7831,-26814,18713,-7073,-24078,30842
135,8844,8277,-26905,18186,-6269,-24439,30625
136,8910,8887,-26842,17744,-5615,-24890,30318
137,8976,9405,-26831,17199,-4853,-25107,29844
138,9042,9777,-26837,16753,-4180,-25611,29891
139,9108,10360,-26912,16301,-3537,-26015,29549
140,9174,10820,-26891,15769,-2802,-26602,29213
141,9240,11339,-26877,15023,-2158,-27006,29075
142,9306,11791,-26875,14769,-1411,-27407,28633
143,9372,12354,-26831,14230,-679,-27804,28497
144,9438,12716,-26746,13734,29,-28290,28143
145,9504,13207,-26648,13180,514,-28356,27768
146,9570,13473,-26547,12633,1304,-28801,27341
147,9636,13972,-26436,12148,1754,-29163,26962
148,9702,14464,-26495,11598,2460,-29336,26703
149,9768,14816,-26298,11094,3013,-29614,26386
150,9834,15176,-26065,10568,3737,-29895,25986
151,9900,15632,-26039,10130,4244,-30201,25827
152,9966,16006,-25944,9528,5165,-30402,25186
153,10032,16331,-25709,9074,5761,-30647,24612
154,10098,16712,-25562,8390,6437,-30993,24311
155,10164,16952,-25318,7945,7282,-31184,23849
156,10230,17413,-25151,7452,7838,-31443,23429
157,10296,17801,-24981,6823,8620,-31666,22897
158,10362,18108,-24668,6199,9362,-31723,22455
159,10428,18359,-24468,5795,9847,-31896,21802
160,10494,18621,-24172,5239,10561,-31953,21510
161,10560,18852,-23976,4743,11150,-31932,20902
162,10626,19150,-23764,4217,11874,-32217,20462
163,10692,19474,-23555,3538,12494,-32257,19958
164,10758,19735,-23238,3144,13065,-32268,19225
165,10824,19959,-22898,2535,13771,-32413,18896
166,10890,20223,-22675,2086,14312,-32533,18394
167,10956,20380,-22348,1603,14898,-32568,17614
168,11022,20646,-22042,1069,15420,-32527,17086
169,11088,20773,-21708,551,16164,-32590,16336
170,11154,21050,-21368,-34,16542,-32586,15893
171,11220,21199,-21097,-487,17179,-32615,15236
172,11286,21420,-20752,-979,17729,-32704,14669
173,11352,21585,-20424,-1532,18379,-32756,14069
174,11418,21635,-20129,-1985,18817,-32621,13372
175,11484,21801,-19648,-2553,19397,-32569,12796
176,11550,21899,-19322,-2988,19869,-32397,12216
177,11616,21977,-18898,-3489,20487,-32360,11589
178,11682,22106,-18547,-3893,20961,-32246,11006
179,11748,22215,-18208,-4385,21597,-32190,10458
180,11814,22306,-17778,-4790,22184,-32128,9821
181,11880,22419,-17380,-5340,22638,-31790,9235
182,11946,22396,-17071,-5757,23170,-31693,8535
183,12012,22452,-16605,-6224,23610,-31602,7915
184,12078,22513,-16191,-6600,24009,-31279,7248
185,12144,22448,-15822,-7095,24577,-30967,6591
186,12210,22528,-15341,-7495,25053,-30827,5974
187,12276,22590,-14955,-7919,25544,-30554,5304
188,12342,22574,-14517,-8344,25988,-30268,4686
189,12408,22485,-14027,-8697,26354,-30093,3979
190,12474,22497,-13686,-9094,26684,-29772,3443
191,12540,22427,-13188,-9512,27147,-29567,2705
192,12606,22361,-12774,-9900,27543,-29329,1958
193,12672,22338,-12344,-10329,27769,-29079,1253
194,12738,22318,-11937,-10654,28273,-28810,578
195,12804,22185,-11487,-11102,28585,-28519,-132
196,12870,22129,-11053,-11403,28957,-28188,-861
197,12936,21968,-10575,-11714,29266,-27740,-1495
198,13002,21815,-10110,-12057,29488,-27406,-2229
199,13068,21715,-9665,-12376,29769,-27032,-2933
200,13134,21564,-9255,-12702,29979,-26681,-3575
201,13200,21446,-8754,-13041,30209,-26258,-4301
202,13266,21312,-8252,-13380,30484,-25820,-4973
203,13332,21121,-7885,-13653,30712,-25384,-5596
204,13398,20972,-7427,-13890,31037,-24950,-6317
205,13464,20817,-7007,-14232,31200,-24484,-6946
206,13530,20616,-6511,-14488,31395,-24021,-7589
207,13596,20396,-6148,-14711,31630,-23596,-8244
208,13662,20247,-5648,-14988,31774,-23057,-8919
209,13728,20001,-5197,-15190,32056,-22550,-9554
210,13794,19841,-4807,-15459,32193,-22046,-10155
211,13860,19627,-4257,-15677,32450,-21628,-10754
212,13926,19403,-3881,-15852,32510,-21049,-11264
213,13992,19154,-3460,-16053,32552,-20516,-11896
214,14058,18904,-3016,-16221,32658,-19876,-12560
215,14124,18639,-2571,-16426,32704,-19363,-13156
216,14190,18393,-2158,-16595,32842,-18852,-13744
217,14256,18121,-1731,-16740,32920,-18225,-14386
218,14322,17876,-1268,-16946,32968,-17620,-14984
219,14388,17587,-892,-17088,33037,-17096,-15596
220,14454,17307,-447,-17198,32917,-16569,-16141
221,14520,16989,-84,-17282,32893,-15998,-16778
222,14586,16675,358,-17440,32801,-15418,-17363
223,14652,16384,768,-17546,32766,-14905,-18090
224,14718,16100,1167,-17609,32679,-14300,-18588
225,14784,15836,1543,-17757,32655,-13739,-19203
226,14850,15522,1978,-17833,32604,-13126,-19748
227,14916,15210,2332,-17887,32560,-12421,-20282
228,14982,14854,2724,-17903,32441,-11873,-20782
229,15048,14541,3055,-17973,32356,-11173,-21289
230,15114,14216,3445,-17999,32253,-10547,-21783
231,15180,13874,3757,-18017,32193,-9903,-22359
232,15246,13492,4159,-18076,32058,-9268,-22858
233,15312,13241,4562,-18097,31954,-8617,-23344
234,15378,12835,4889,-18128,31753,-7947,-23835
235,15444,12562,5243,-18089,31525,-7240,-24262
236,15510,12174,5548,-18059,31232,-6652,-24597
237,15576,11851,5908,-18086,30974,-5935,-25043
238,15642,11520,6209,-18027,30745,-5197,-25492
239,15708,11075,6477,-18046,30453,-4556,-25963
240,15774,10800,6864,-17955,30296,-3812,-26321
241,15840,10407,7215,-17894,29959,-3107,-26778
242,15906,10106,7441,-17875,29661,-2402,-27143
243,15972,9710,7756,-17755,29360,-1835,-27458
244,16038,9380,7971,-17703,29077,-1166,-27795
245,16104,8945,8254,-17589,28713,-508,-28179
246,16170,8601,8548,-17518,28436,115,-28425
247,16236,8294,8819,-17419,28114,635,-28865
248,16302,7991,9033,-17324,27731,1411,-29188
249,16368,7550,9312,-17239,27457,2044,-29557
250,16434,7186,9550,-17102,26942,2740,-29764
251,16500,6806,9739,-16986,26621,3404,-29932
252,16566,6467,9976,-16781,26207,4147,-30184
253,16632,6100,10210,-16660,25698,4811,-30452
254,16698,5735,10412,-16510,25346,5572,-30813
255,16764,5372,10633,-16342,24836,6167,-31004
256,16830,5010,10826,-16254,24431,6842,-31162
257,16896,4661,11005,-16041,23965,7425,-31423
258,16962,4363,11180,-15866,23386,8053,-31566
259,17028,3998,11249,-15688,23062,8782,-31737
260,17094,3634,11509,-15477,22438,9333,-31998
261,17160,3289,11610,-15317,22039,10174,-32110
262,17226,2892,11791,-15092,21512,10790,-32299
263,17292,2559,11962,-14826,21023,11396,-32386
264,17358,2287,12057,-14690,20535,12018,-32499
265,17424,1962,12208,-14371,20085,12577,-32618
266,17490,1617,12313,-14307,19521,13259,-32610
267,17556,1302,12401,-14039,18824,13810,-32662
268,17622,869,12476,-13940,18353,14428,-32714
269,17688,651,12580,-13603,17636,14873,-32794
270,17754,330,12724,-13428,17214,15633,-32773
271,17820,-15,12762,-13175,16619,16276,-32877
272,17886,-322,12975,-12908,16034,16804,-32769
273,17952,-644,12852,-12685,15480,17376,-32599
274,18018,-906,12964,-12369,14895,17827,-32574
275,18084,-1166,12841,-12145,14232,18477,-32664
276,18150,-1490,13020,-11949,13637,18835,-32527
277,18216,-1719,13061,-11649,13006,19539,-32537
278,18282,-2074,13125,-11319,12455,19981,-32511
279,18348,-2243,13156,-11154,11777,20645,-32344
280,18414,-2695,13137,-10853,11286,21220,-32270
281,18480,-2918,13171,-10594,10397,21700,-32013
282,18546,-3260,13136,-10315,9851,21952,-31874
283,18612,-3448,13017,-10066,9016,22563,-31694
284,18678,-3674,13090,-9791,8535,22953,-31674
285,18744,-3891,13144,-9483,7833,23538,-31357
286,18810,-4119,13053,-9267,7265,24047,-31174
287,18876,-4355,13094,-8908,6631,24396,-30972
288,18942,-4595,13017,-8789,6040,24859,-30709
289,19008,-4796,13003,-8473,5040,25313,-30442
290,19074,-5057,12865,-8224,4587,25656,-30140
291,19140,-5244,12864,-7916,3843,26026,-29847
292,19206,-5317,12776,-7645,3164,26572,-29627
293,19272,-5678,12709,-7377,2522,27093,-29312
294,19338,-5935,12684,-7065,1821,27400,-28991
295,19404,-6091,12496,-6736,1140,27596,-28771
296,19470,-6268,12409,-6616,444,28057,-28423
297,19536,-6494,12350,-6222,-186,28310,-28088
298,19602,-6618,12277,-5981,-940,28676,-27692
299,19668,-6829,12118,-5708,-1475,28874,-27369
300,19734,-6951,12042,-5410,-2123,29235,-26969
301,19800,-7112,11977,-5220,-2790,29516,-26733
302,19866,-7342,11988,-4964,-3526,29770,-26237
303,19932,-7493,11700,-4692,-4051,29930,-25836
304,19998,-7529,11628,-4447,-4744,30125,-25409
305,20064,-7619,11475,-4241,-5504,30548,-24965
306,20130,-7821,11306,-3895,-6197,30891,-24461
307,20196,-7944,11280,-3640,-6854,31062,-24097
308,20262,-8042,11046,-3370,-7512,31210,-23589
309,20328,-8074,10836,-3054,-8220,31485,-23238
310,20394,-8256,10778,-2917,-8847,31627,-22861
311,20460,-8320,10569,-2687,-9632,31705,-22223
312,20526,-8453,10435,-2368,-10144,31802,-21681
313,20592,-8490,10279,-2081,-10962,31777,-21056
314,20658,-8545,10050,-1922,-11597,31929,-20604
315,20724,-8646,9942,-1656,-12064,32025,-20165
316,20790,-8646,9810,-1419,-12866,32088,-19570
317,20856,-8807,9568,-1100,-13369,32343,-19039
318,20922,-8891,9488,-924,-14011,32105,-18302
319,20988,-8862,9157,-703,-14523,32232,-17808
320,21054,-8918,9012,-506,-15063,32219,-17243
321,21120,-8918,8910,-315,-15682,32350,-16715
322,21186,-8998,8715,-158,-16117,32402,-16005
323,21252,-9027,8587,136,-16766,32466,-15482
324,21318,-9082,8330,356,-17377,32399,-14821
325,21384,-9072,8158,539,-17883,32357,-14173
326,21450,-9054,7984,738,-18390,32308,-13607
327,21516,-9044,7833,840,-19052,32232,-13014
328,21582,-9071,7623,1123,-19426,32197,-12444
329,21648,-9122,7453,1315,-20095,32013,-11785
330,21714,-9109,7250,1512,-20704,31901,-11126
331,21780,-9134,7000,1691,-21211,31821,-10614
332,21846,-9082,6852,1870,-21756,31518,-10052
333,21912,-9039,6685,1996,-22300,31536,-9336
334,21978,-9015,6461,2287,-22797,31278,-8727
335,22044,-8931,6307,2380,-23227,31046,-8001
336,22110,-8884,6105,2547,-23723,30857,-7419
337,22176,-8903,5887,2731,-24132,30640,-6752
338,22242,-8855,5734,2835,-24656,30433,-6113
339,22308,-8811,5524,2955,-25113,30246,-5447
340,22374,-8800,5252,3100,-25485,29936,-4769
341,22440,-8762,5155,3243,-25849,29564,-4117
342,22506,-8670,4912,3347,-26325,29446,-3393
343,22572,-8528,4788,3536,-26648,29241,-2672
344,22638,-8470,4602,3631,-27047,28957,-2038
345,22704,-8436,4373,3741,-27501,28669,-1336
346,22770,-8350,4169,3879,-27820,28427,-686
347,22836,-8329,3988,3951,-28132,28161,-20
348,22902,-8286,3789,4058,-28513,27729,742
349,22968,-8150,3611,4216,-28761,27352,1424
350,23034,-8050,3439,4289,-29048,26989,2124
351,23100,-7952,3208,4357,-29243,26618,2762
352,23166,-7857,3087,4434,-29472,26199,3504
353,23232,-7832,2883,4564,-29783,25794,4125
354,23298,-7677,2700,4627,-30003,25379,4833
355,23364,-7600,2526,4701,-30299,24998,5439
356,23430,-7513,2360,4790,-30514,24555,6173
357,23496,-7378,2258,4835,-30686,23907,6807
358,23562,-7258,2046,4855,-30916,23500,7515
359,23628,-7166,1857,4984,-31070,23084,8116
360,23694,-7049,1683,4979,-31344,22604,8709
361,23760,-6974,1608,5025,-31517,22086,9373
362,23826,-6818,1350,5090,-31742,21570,10001
363,23892,-6747,1218,5120,-31854,21078,10599
364,23958,-6583,1065,5178,-31967,20501,11185
365,24024,-6484,943,5217,-32051,19968,11766
366,24090,-6404,746,5235,-32101,19334,12368
367,24156,-6242,669,5264,-32231,18790,12968
368,24222,-6148,473,5314,-32303,18239,13583
369,24288,-6001,354,5312,-32350,17753,14233
370,24354,-5846,204,5370,-32459,17106,14831
371,24420,-5744,15,5352,-32290,16580,15480
372,24486,-5630,-60,5394,-32361,16034,16014
373,24552,-5536,-207,5373,-32244,15465,16554
374,24618,-5379,-302,5392,-32272,14910,17233
375,24684,-5265,-460,5355,-32193,14319,17762
376,24750,-5109,-635,5367,-32121,13743,18412
377,24816,-4959,-691,5361,-32129,13184,18949
378,24882,-4882,-814,5340,-31996,12651,19512
379,24948,-4707,-928,5319,-31969,11927,20074
380,25014,-4584,-1033,5339,-31849,11310,20569
381,25080,-4472,-1181,5310,-31803,10708,21089
382,25146,-4378,-1237,5279,-31630,9972,21598
383,25212,-4237,-1361,5188,-31539,9330,22081
384,25278,-4108,-1462,5220,-31457,8727,22597
385,25344,-3999,-1598,5232,-31250,8055,23030
386,25410,-3897,-1646,5175,-31126,7368,23542
387,25476,-3744,-1691,5147,-30842,6620,23998
388,25542,-3633,-1818,5079,-30644,5937,24441
389,25608,-3516,-1838,5075,-30304,5253,24815
390,25674,-3303,-1980,4990,-30013,4569,25169
391,25740,-3222,-2017,4954,-29763,3869,25723
392,25806,-3104,-2080,4903,-29514,3197,26050
393,25872,-2981,-2159,4882,-29173,2573,26620
394,25938,-2845,-2200,4776,-28878,1944,26848
395,26004,-2804,-2220,4780,-28518,1331,27152
396,26070,-2641,-2393,4652,-28345,709,27537
397,26136,-2563,-2416,4657,-27918,-53,27854
398,26202,-2435,-2495,4591,-27687,-585,28120
399,26268,-2292,-2567,4531,-27467,-1306,28556
400,26334,-2193,-2640,4465,-27050,-1873,28855
401,26400,-2048,-2664,4402,-26660,-2633,29111
402,26466,-2014,-2704,4360,-26208,-3274,29404
403,26532,-1889,-2786,4271,-25730,-3985,29633
404,26598,-1798,-2792,4224,-25326,-4654,29817
405,26664,-1701,-2862,4066,-24900,-5305,30164
406,26730,-1589,-2870,4071,-24463,-5989,30253
407,26796,-1489,-2908,4073,-24028,-6769,30609
408,26862,-1362,-2966,3959,-23604,-7330,30838
409,26928,-1337,-2993,3902,-23027,-8051,30870
410,26994,-1160,-2965,3865,-22657,-8751,31187
411,27060,-1065,-3009,3731,-22027,-9331,31374
412,27126,-1099,-2994,3684,-21652,-10035,31513
413,27192,-907,-3043,3585,-21232,-10628,31723
414,27258,-922,-3112,3535,-20710,-11321,31847
415,27324,-732,-3088,3487,-20376,-11967,31842
416,27390,-607,-3092,3370,-19735,-12509,32036
417,27456,-581,-3108,3409,-19106,-13110,32035
418,27522,-522,-3103,3341,-18581,-13809,32236
419,27588,-392,-3154,3205,-18002,-14394,32184
420,27654,-349,-3109,3200,-17446,-14983,32188
421,27720,-265,-3085,3018,-16906,-15531,32282
422,27786,-207,-3083,3011,-16384,-16222,32279
423,27852,-134,-3129,2817,-15754,-16658,32317
